Command: ./simv -l simulation.log -cm line+cond+fsm+tgl+branch -cm_dir ./coverage.vdb
Chronologic VCS simulator copyright 1991-2016
Contains Synopsys proprietary information.
Compiler version L-2016.06-SP2_Full64; Runtime version L-2016.06-SP2_Full64;  Feb 18 22:20 2026

Note-[FCICIO] Instance coverage is ON
/u/ameyk/ECE593_Codes/ECE593_AHB2APB_Bridge/AHB2APB_Brdg_MS2_Class/coverage.sv, 51
coverage_collector, "coverage_collector::cg_ahb_protocol"
  Instance coverage is set (option.per_instance = 1) for covergroup 
  'coverage_collector::cg_ahb_protocol'
  
  Covergroup Instance: ahb_cov 
  Design hierarchy: ahb_apb_top.dut.cov_inst


Note-[FCICIO] Instance coverage is ON
/u/ameyk/ECE593_Codes/ECE593_AHB2APB_Bridge/AHB2APB_Brdg_MS2_Class/coverage.sv, 97
coverage_collector, "coverage_collector::cg_apb_protocol"
  Instance coverage is set (option.per_instance = 1) for covergroup 
  'coverage_collector::cg_apb_protocol'
  
  Covergroup Instance: apb_cov 
  Design hierarchy: ahb_apb_top.dut.cov_inst


Note-[FCICIO] Instance coverage is ON
/u/ameyk/ECE593_Codes/ECE593_AHB2APB_Bridge/AHB2APB_Brdg_MS2_Class/coverage.sv, 136
coverage_collector, "coverage_collector::cg_fsm_states"
  Instance coverage is set (option.per_instance = 1) for covergroup 
  'coverage_collector::cg_fsm_states'
  
  Covergroup Instance: fsm_state_cov 
  Design hierarchy: ahb_apb_top.dut.cov_inst


Note-[FCICIO] Instance coverage is ON
/u/ameyk/ECE593_Codes/ECE593_AHB2APB_Bridge/AHB2APB_Brdg_MS2_Class/coverage.sv, 154
coverage_collector, "coverage_collector::cg_fsm_transitions"
  Instance coverage is set (option.per_instance = 1) for covergroup 
  'coverage_collector::cg_fsm_transitions'
  
  Covergroup Instance: fsm_trans_cov 
  Design hierarchy: ahb_apb_top.dut.cov_inst


Note-[FCICIO] Instance coverage is ON
/u/ameyk/ECE593_Codes/ECE593_AHB2APB_Bridge/AHB2APB_Brdg_MS2_Class/coverage.sv, 187
coverage_collector, "coverage_collector::cg_address_mapping"
  Instance coverage is set (option.per_instance = 1) for covergroup 
  'coverage_collector::cg_address_mapping'
  
  Covergroup Instance: addr_map_cov 
  Design hierarchy: ahb_apb_top.dut.cov_inst


Note-[FCICIO] Instance coverage is ON
/u/ameyk/ECE593_Codes/ECE593_AHB2APB_Bridge/AHB2APB_Brdg_MS2_Class/coverage.sv, 208
coverage_collector, "coverage_collector::cg_cdc"
  Instance coverage is set (option.per_instance = 1) for covergroup 
  'coverage_collector::cg_cdc'
  
  Covergroup Instance: cdc_cov 
  Design hierarchy: ahb_apb_top.dut.cov_inst


Note-[FCICIO] Instance coverage is ON
/u/ameyk/ECE593_Codes/ECE593_AHB2APB_Bridge/AHB2APB_Brdg_MS2_Class/coverage.sv, 232
coverage_collector, "coverage_collector::cg_transaction_sequences"
  Instance coverage is set (option.per_instance = 1) for covergroup 
  'coverage_collector::cg_transaction_sequences'
  
  Covergroup Instance: trans_seq_cov 
  Design hierarchy: ahb_apb_top.dut.cov_inst


Note-[FCICIO] Instance coverage is ON
/u/ameyk/ECE593_Codes/ECE593_AHB2APB_Bridge/AHB2APB_Brdg_MS2_Class/coverage.sv, 254
coverage_collector, "coverage_collector::cg_corner_cases"
  Instance coverage is set (option.per_instance = 1) for covergroup 
  'coverage_collector::cg_corner_cases'
  
  Covergroup Instance: corner_cov 
  Design hierarchy: ahb_apb_top.dut.cov_inst


========================================
   Simulation Started
========================================

[26000] Reset released
[75000] Synchronized with both clocks

========================================================================
   AHB2APB Bridge Comprehensive Verification Suite
========================================================================
   Running all tests sequentially to achieve maximum coverage
========================================================================

[75000] ENVIRONMENT: Build phase completed

[TEST 1/5] Running SANITY test (regression baseline)...

[125000] ENVIRONMENT: Starting sanity test
[125000] GENERATOR: Starting sanity test (4 transactions)


[125000] GENERATOR: Stimulus generation complete (4 transactions)

[125000] ========== AHB Transaction #1 ==========
[125000] AHB: WRITE  Addr=0x80000054  Data=0x80000054

[156000] ========== AHB Transaction #2 ==========
[156000] AHB: WRITE  Addr=0x80000058  Data=0x80000058
[210000]   APB Slave: Stored Write  Addr=0x80000054  Data=0x80000054

[216000] ========== AHB Transaction #3 ==========
[216000] AHB: WRITE  Addr=0x8000005c  Data=0x8000005c
[230000]   PASS - Checker: AHB→APB translation OK
[270000]   APB Slave: Stored Write  Addr=0x80000058  Data=0x80000058

[276000] ========== AHB Transaction #4 ==========
[276000] AHB: READ   Addr=0x800000aa  Data=0xxxxxxxxx
[290000]   PASS - Checker: AHB→APB translation OK
[330000]   APB Slave: Stored Write  Addr=0x8000005c  Data=0x8000005c
[350000]   PASS - Checker: AHB→APB translation OK
[390000]   APB Slave: Read (MISS)   Addr=0x800000aa  Data=0xaaff55 [generated]
[410000]   PASS - Checker: AHB→APB addr OK, APB Read Data=0xaaff55

[1110000] ENVIRONMENT: All transactions completed


========== SCOREBOARD REPORT ==========
Total Transactions: 4
  Writes: 3
  Reads:  1

========== COVERAGE REPORT ============
Functional Coverage: 65.05%
=======================================


========== APB SLAVE STATISTICS ==========
Total Writes:       3
Total Reads:        1
Protocol Errors:    0
Memory Entries:     3
==========================================


[1110000] ENVIRONMENT: Sanity test completed


[TEST 2/5] Running RAND_SMALL test...

[1205000] ENVIRONMENT: Starting BASE random test (1000 transactions)
[1205000] GENERATOR: Starting BASE random test (1000 transactions)
[1205000]   Gen txn[0]: AHB_WRITE addr=0x8a6e6fe4 size=0 burst=2 trans=2
[1205000]   Gen txn[1]: AHB_READ addr=0x84dee4b4 size=0 burst=1 trans=2
[1205000]   Gen txn[2]: AHB_WRITE addr=0x891e3e8c size=2 burst=1 trans=2
[1205000]   Gen txn[999]: AHB_READ addr=0x802b93bc size=0 burst=2 trans=3

[1205000] GENERATOR: BASE test generation complete (1000 transactions)


[1205000] ========== AHB Transaction #5 ==========
[1205000] AHB: WRITE  Addr=0x8a6e6fe4  Data=0xe716e634

[1236000] ========== AHB Transaction #6 ==========
[1236000] AHB: READ   Addr=0x84dee4b4  Data=0xxxxxxxxx
[1290000]   APB Slave: Stored Write  Addr=0x8a6e6fe4  Data=0xe716e634

[1296000] ========== AHB Transaction #7 ==========
[1296000] AHB: WRITE  Addr=0x891e3e8c  Data=0x4b7dfc8c
[1310000]   PASS - Checker: AHB→APB translation OK

[1336000] ========== AHB Transaction #8 ==========
[1336000] AHB: READ   Addr=0x844dc230  Data=0xxxxxxxxx
[1350000]   APB Slave: Read (MISS)   Addr=0x84dee4b4  Data=0xe4b41b4b [generated]
[1370000]   PASS - Checker: AHB→APB addr OK, APB Read Data=0xe4b41b4b
[1390000]   APB Slave: Stored Write  Addr=0x891e3e8c  Data=0x4b7dfc8c

[1396000] ========== AHB Transaction #9 ==========
[1396000] AHB: WRITE  Addr=0x87ed4c5c  Data=0xadb1eec6
[1410000]   PASS - Checker: AHB→APB translation OK

[1436000] ========== AHB Transaction #10 ==========
[1436000] AHB: READ   Addr=0x8140d0ba  Data=0xxxxxxxxx
[1450000]   APB Slave: Read (MISS)   Addr=0x844dc230  Data=0xc2303dcf [generated]
[1470000]   PASS - Checker: AHB→APB addr OK, APB Read Data=0xc2303dcf
[1490000]   APB Slave: Stored Write  Addr=0x87ed4c5c  Data=0xadb1eec6

[1496000] ========== AHB Transaction #11 ==========
[1496000] AHB: READ   Addr=0x85ce258c  Data=0xxxxxxxxx
[1510000]   PASS - Checker: AHB→APB translation OK

[1546000] ========== AHB Transaction #12 ==========
[1546000] AHB: WRITE  Addr=0x8bdb6d7c  Data=0x4e92c3
[1550000]   APB Slave: Read (MISS)   Addr=0x8140d0ba  Data=0xd0ba2f45 [generated]
[1570000]   PASS - Checker: AHB→APB addr OK, APB Read Data=0xd0ba2f45

[1586000] ========== AHB Transaction #13 ==========
[1586000] AHB: WRITE  Addr=0x8929cc80  Data=0x6f899cba

[1646000] ========== AHB Transaction #14 ==========
[1646000] AHB: READ   Addr=0x849772a4  Data=0xxxxxxxxx

[1706000] ========== AHB Transaction #15 ==========
[1706000] AHB: WRITE  Addr=0x81f19ea4  Data=0x294da7e2

[1746000] ========== AHB Transaction #16 ==========
[1746000] AHB: WRITE  Addr=0x86755b0a  Data=0x735621a3

[1806000] ========== AHB Transaction #17 ==========
[1806000] AHB: READ   Addr=0x868d52d4  Data=0xxxxxxxxx

[1866000] ========== AHB Transaction #18 ==========
[1866000] AHB: WRITE  Addr=0x8078b106  Data=0x3e5bf558

[1906000] ========== AHB Transaction #19 ==========
[1906000] AHB: READ   Addr=0x87d05978  Data=0xxxxxxxxx

[1966000] ========== AHB Transaction #20 ==========
[1966000] AHB: WRITE  Addr=0x86400ca8  Data=0x6454ed13

[2006000] ========== AHB Transaction #21 ==========
[2006000] AHB: WRITE  Addr=0x86446568  Data=0xb3b89881

[2066000] ========== AHB Transaction #22 ==========
[2066000] AHB: READ   Addr=0x8868dcf6  Data=0xxxxxxxxx

[2126000] ========== AHB Transaction #23 ==========
[2126000] AHB: READ   Addr=0x8b174a4c  Data=0xxxxxxxxx

[2176000] ========== AHB Transaction #24 ==========
[2176000] AHB: READ   Addr=0x867f1ae4  Data=0xxxxxxxxx
[2210000]   APB Slave: Read (MISS)   Addr=0x8b174a4c  Data=0x4a4cb5b3 [generated]

[2226000] ========== AHB Transaction #25 ==========
[2226000] AHB: READ   Addr=0x88ff9ac4  Data=0xxxxxxxxx
[2230000]   PASS - Checker: AHB→APB addr OK, APB Read Data=0x4a4cb5b3

[2276000] ========== AHB Transaction #26 ==========
[2276000] AHB: WRITE  Addr=0x83a505c4  Data=0x886c0101
[2310000]   APB Slave: Read (MISS)   Addr=0x88ff9ac4  Data=0x9ac4653b [generated]

[2316000] ========== AHB Transaction #27 ==========
[2316000] AHB: READ   Addr=0x89cddd80  Data=0xxxxxxxxx
[2330000]   PASS - Checker: AHB→APB addr OK, APB Read Data=0x9ac4653b
[2370000]   APB Slave: Stored Write  Addr=0x83a505c4  Data=0x886c0101

[2376000] ========== AHB Transaction #28 ==========
[2376000] AHB: READ   Addr=0x8b57e020  Data=0xxxxxxxxx
[2390000]   PASS - Checker: AHB→APB translation OK

[2426000] ========== AHB Transaction #29 ==========
[2426000] AHB: WRITE  Addr=0x81692a12  Data=0x4d601edc
[2430000]   APB Slave: Read (MISS)   Addr=0x89cddd80  Data=0xdd80227f [generated]
[2450000]   PASS - Checker: AHB→APB addr OK, APB Read Data=0xdd80227f

[2466000] ========== AHB Transaction #30 ==========
[2466000] AHB: READ   Addr=0x84157b3c  Data=0xxxxxxxxx

[2526000] ========== AHB Transaction #31 ==========
[2526000] AHB: WRITE  Addr=0x86759624  Data=0x5cbf413d

[2566000] ========== AHB Transaction #32 ==========
[2566000] AHB: READ   Addr=0x875f2ea0  Data=0xxxxxxxxx

[2626000] ========== AHB Transaction #33 ==========
[2626000] AHB: READ   Addr=0x8af16c42  Data=0xxxxxxxxx

[2676000] ========== AHB Transaction #34 ==========
[2676000] AHB: READ   Addr=0x85ec5774  Data=0xxxxxxxxx
[2710000]   APB Slave: Read (MISS)   Addr=0x8af16c42  Data=0x6c4293bd [generated]

[2726000] ========== AHB Transaction #35 ==========
[2726000] AHB: READ   Addr=0x87bf66b2  Data=0xxxxxxxxx
[2730000]   PASS - Checker: AHB→APB addr OK, APB Read Data=0x6c4293bd

[2776000] ========== AHB Transaction #36 ==========
[2776000] AHB: READ   Addr=0x827eae3c  Data=0xxxxxxxxx
[2810000]   APB Slave: Read (MISS)   Addr=0x87bf66b2  Data=0x66b2994d [generated]

[2826000] ========== AHB Transaction #37 ==========
[2826000] AHB: WRITE  Addr=0x8485ad1c  Data=0xec284b22
[2830000]   PASS - Checker: AHB→APB addr OK, APB Read Data=0x66b2994d

[2866000] ========== AHB Transaction #38 ==========
[2866000] AHB: READ   Addr=0x83c15eb2  Data=0xxxxxxxxx

[2926000] ========== AHB Transaction #39 ==========
[2926000] AHB: READ   Addr=0x87b49b26  Data=0xxxxxxxxx

[2976000] ========== AHB Transaction #40 ==========
[2976000] AHB: READ   Addr=0x874b0a5c  Data=0xxxxxxxxx
[3010000]   APB Slave: Read (MISS)   Addr=0x87b49b26  Data=0x9b2664d9 [generated]

[3026000] ========== AHB Transaction #41 ==========
[3026000] AHB: READ   Addr=0x8bebbffc  Data=0xxxxxxxxx
[3030000]   PASS - Checker: AHB→APB addr OK, APB Read Data=0x9b2664d9

[3076000] ========== AHB Transaction #42 ==========
[3076000] AHB: WRITE  Addr=0x83b35b9c  Data=0xa84753c3
[3110000]   APB Slave: Read (MISS)   Addr=0x8bebbffc  Data=0xbffc4003 [generated]

[3116000] ========== AHB Transaction #43 ==========
[3116000] AHB: READ   Addr=0x8680728e  Data=0xxxxxxxxx
[3130000]   PASS - Checker: AHB→APB addr OK, APB Read Data=0xbffc4003
[3170000]   APB Slave: Stored Write  Addr=0x83b35b9c  Data=0xa84753c3

[3176000] ========== AHB Transaction #44 ==========
[3176000] AHB: WRITE  Addr=0x80014846  Data=0x1f596560
[3190000]   PASS - Checker: AHB→APB translation OK

[3216000] ========== AHB Transaction #45 ==========
[3216000] AHB: WRITE  Addr=0x8b190d20  Data=0x400e583f
[3230000]   APB Slave: Read (MISS)   Addr=0x8680728e  Data=0x728e8d71 [generated]
[3250000]   PASS - Checker: AHB→APB addr OK, APB Read Data=0x728e8d71
[3270000]   APB Slave: Stored Write  Addr=0x80014846  Data=0x1f596560

[3276000] ========== AHB Transaction #46 ==========
[3276000] AHB: WRITE  Addr=0x839c04d4  Data=0x5368f327
[3290000]   PASS - Checker: AHB→APB translation OK
[3330000]   APB Slave: Stored Write  Addr=0x8b190d20  Data=0x400e583f

[3336000] ========== AHB Transaction #47 ==========
[3336000] AHB: WRITE  Addr=0x8586ca44  Data=0x54c9fa01
[3350000]   PASS - Checker: AHB→APB translation OK
[3390000]   APB Slave: Stored Write  Addr=0x839c04d4  Data=0x5368f327

[3396000] ========== AHB Transaction #48 ==========
[3396000] AHB: WRITE  Addr=0x862d4f84  Data=0xda0fdf06
[3410000]   PASS - Checker: AHB→APB translation OK
[3450000]   APB Slave: Stored Write  Addr=0x8586ca44  Data=0x54c9fa01

[3456000] ========== AHB Transaction #49 ==========
[3456000] AHB: READ   Addr=0x882c5eac  Data=0xxxxxxxxx
[3470000]   PASS - Checker: AHB→APB translation OK
[3510000]   APB Slave: Stored Write  Addr=0x862d4f84  Data=0xda0fdf06

[3516000] ========== AHB Transaction #50 ==========
[3516000] AHB: WRITE  Addr=0x879a1090  Data=0xee56ed32
[3530000]   PASS - Checker: AHB→APB translation OK

[3556000] ========== AHB Transaction #51 ==========
[3556000] AHB: READ   Addr=0x8712d088  Data=0xxxxxxxxx
[3570000]   APB Slave: Read (MISS)   Addr=0x882c5eac  Data=0x5eaca153 [generated]
[3590000]   PASS - Checker: AHB→APB addr OK, APB Read Data=0x5eaca153
[3610000]   APB Slave: Stored Write  Addr=0x879a1090  Data=0xee56ed32

[3616000] ========== AHB Transaction #52 ==========
[3616000] AHB: READ   Addr=0x876807f0  Data=0xxxxxxxxx
[3630000]   PASS - Checker: AHB→APB translation OK

[3666000] ========== AHB Transaction #53 ==========
[3666000] AHB: READ   Addr=0x83ed2984  Data=0xxxxxxxxx
[3670000]   APB Slave: Read (MISS)   Addr=0x8712d088  Data=0xd0882f77 [generated]
[3690000]   PASS - Checker: AHB→APB addr OK, APB Read Data=0xd0882f77

[3716000] ========== AHB Transaction #54 ==========
[3716000] AHB: READ   Addr=0x835e2ad0  Data=0xxxxxxxxx
[3750000]   APB Slave: Read (MISS)   Addr=0x83ed2984  Data=0x2984d67b [generated]

[3766000] ========== AHB Transaction #55 ==========
[3766000] AHB: WRITE  Addr=0x88b6a886  Data=0xb00f6f6c
[3770000]   PASS - Checker: AHB→APB addr OK, APB Read Data=0x2984d67b

[3806000] ========== AHB Transaction #56 ==========
[3806000] AHB: WRITE  Addr=0x819bec30  Data=0xd1d08460

[3866000] ========== AHB Transaction #57 ==========
[3866000] AHB: READ   Addr=0x8a36171c  Data=0xxxxxxxxx

[3926000] ========== AHB Transaction #58 ==========
[3926000] AHB: READ   Addr=0x865bb5b8  Data=0xxxxxxxxx

[3976000] ========== AHB Transaction #59 ==========
[3976000] AHB: WRITE  Addr=0x80e7e2ba  Data=0xc784a85f
[4010000]   APB Slave: Read (MISS)   Addr=0x865bb5b8  Data=0xb5b84a47 [generated]

[4016000] ========== AHB Transaction #60 ==========
[4016000] AHB: READ   Addr=0x871c5324  Data=0xxxxxxxxx
[4030000]   PASS - Checker: AHB→APB addr OK, APB Read Data=0xb5b84a47
[4070000]   APB Slave: Stored Write  Addr=0x80e7e2ba  Data=0xc784a85f

[4076000] ========== AHB Transaction #61 ==========
[4076000] AHB: READ   Addr=0x87172e34  Data=0xxxxxxxxx
[4090000]   PASS - Checker: AHB→APB translation OK

[4126000] ========== AHB Transaction #62 ==========
[4126000] AHB: WRITE  Addr=0x8a7da72c  Data=0xb9263186
[4130000]   APB Slave: Read (MISS)   Addr=0x871c5324  Data=0x5324acdb [generated]
[4150000]   PASS - Checker: AHB→APB addr OK, APB Read Data=0x5324acdb

[4166000] ========== AHB Transaction #63 ==========
[4166000] AHB: WRITE  Addr=0x8b9c8bd8  Data=0x634ac031

[4226000] ========== AHB Transaction #64 ==========
[4226000] AHB: READ   Addr=0x85d3b922  Data=0xxxxxxxxx

[4286000] ========== AHB Transaction #65 ==========
[4286000] AHB: WRITE  Addr=0x82535b14  Data=0x99e9ce8b

[4316000] ========== AHB Transaction #66 ==========
[4316000] AHB: WRITE  Addr=0x8052f708  Data=0xe8d86149
[4370000]   APB Slave: Stored Write  Addr=0x82535b14  Data=0x99e9ce8b

[4376000] ========== AHB Transaction #67 ==========
[4376000] AHB: READ   Addr=0x85c9cdd0  Data=0xxxxxxxxx
[4390000]   PASS - Checker: AHB→APB translation OK
[4430000]   APB Slave: Stored Write  Addr=0x8052f708  Data=0xe8d86149

[4436000] ========== AHB Transaction #68 ==========
[4436000] AHB: WRITE  Addr=0x8207b9ae  Data=0x5a6e9a81
[4450000]   PASS - Checker: AHB→APB translation OK

[4476000] ========== AHB Transaction #69 ==========
[4476000] AHB: WRITE  Addr=0x8baf931c  Data=0x7fd51b29
[4490000]   APB Slave: Read (MISS)   Addr=0x85c9cdd0  Data=0xcdd0322f [generated]
[4510000]   PASS - Checker: AHB→APB addr OK, APB Read Data=0xcdd0322f
[4530000]   APB Slave: Stored Write  Addr=0x8207b9ae  Data=0x5a6e9a81

[4536000] ========== AHB Transaction #70 ==========
[4536000] AHB: WRITE  Addr=0x82c868ec  Data=0x91c6ee70
[4550000]   PASS - Checker: AHB→APB translation OK
[4590000]   APB Slave: Stored Write  Addr=0x8baf931c  Data=0x7fd51b29

[4596000] ========== AHB Transaction #71 ==========
[4596000] AHB: WRITE  Addr=0x824af412  Data=0xa4fb7d71
[4610000]   PASS - Checker: AHB→APB translation OK
[4650000]   APB Slave: Stored Write  Addr=0x82c868ec  Data=0x91c6ee70

[4656000] ========== AHB Transaction #72 ==========
[4656000] AHB: READ   Addr=0x8188264e  Data=0xxxxxxxxx
[4670000]   PASS - Checker: AHB→APB translation OK
[4710000]   APB Slave: Stored Write  Addr=0x824af412  Data=0xa4fb7d71

[4716000] ========== AHB Transaction #73 ==========
[4716000] AHB: WRITE  Addr=0x88e388fa  Data=0x1b6c51af
[4730000]   PASS - Checker: AHB→APB translation OK

[4756000] ========== AHB Transaction #74 ==========
[4756000] AHB: WRITE  Addr=0x89417e98  Data=0x73ed1fd4
[4770000]   APB Slave: Read (MISS)   Addr=0x8188264e  Data=0x264ed9b1 [generated]
[4790000]   PASS - Checker: AHB→APB addr OK, APB Read Data=0x264ed9b1
[4810000]   APB Slave: Stored Write  Addr=0x88e388fa  Data=0x1b6c51af

[4816000] ========== AHB Transaction #75 ==========
[4816000] AHB: WRITE  Addr=0x86475d10  Data=0xc6156187
[4830000]   PASS - Checker: AHB→APB translation OK
[4870000]   APB Slave: Stored Write  Addr=0x89417e98  Data=0x73ed1fd4

[4876000] ========== AHB Transaction #76 ==========
[4876000] AHB: WRITE  Addr=0x80df2e84  Data=0xf4a082bd
[4890000]   PASS - Checker: AHB→APB translation OK
[4930000]   APB Slave: Stored Write  Addr=0x86475d10  Data=0xc6156187

[4936000] ========== AHB Transaction #77 ==========
[4936000] AHB: READ   Addr=0x88e57fe4  Data=0xxxxxxxxx
[4950000]   PASS - Checker: AHB→APB translation OK
[4990000]   APB Slave: Stored Write  Addr=0x80df2e84  Data=0xf4a082bd

[4996000] ========== AHB Transaction #78 ==========
[4996000] AHB: WRITE  Addr=0x889aa69c  Data=0x7fa002ac
[5010000]   PASS - Checker: AHB→APB translation OK

[5036000] ========== AHB Transaction #79 ==========
[5036000] AHB: READ   Addr=0x830fa770  Data=0xxxxxxxxx
[5050000]   APB Slave: Read (MISS)   Addr=0x88e57fe4  Data=0x7fe4801b [generated]
[5070000]   PASS - Checker: AHB→APB addr OK, APB Read Data=0x7fe4801b
[5090000]   APB Slave: Stored Write  Addr=0x889aa69c  Data=0x7fa002ac

[5096000] ========== AHB Transaction #80 ==========
[5096000] AHB: WRITE  Addr=0x820a4b3c  Data=0x1f7bf508
[5110000]   PASS - Checker: AHB→APB translation OK

[5136000] ========== AHB Transaction #81 ==========
[5136000] AHB: WRITE  Addr=0x88ad1ddc  Data=0x365128b1
[5150000]   APB Slave: Read (MISS)   Addr=0x830fa770  Data=0xa770588f [generated]
[5170000]   PASS - Checker: AHB→APB addr OK, APB Read Data=0xa770588f
[5190000]   APB Slave: Stored Write  Addr=0x820a4b3c  Data=0x1f7bf508

[5196000] ========== AHB Transaction #82 ==========
[5196000] AHB: WRITE  Addr=0x8b61f7ec  Data=0xd8ff1269
[5210000]   PASS - Checker: AHB→APB translation OK
[5250000]   APB Slave: Stored Write  Addr=0x88ad1ddc  Data=0x365128b1

[5256000] ========== AHB Transaction #83 ==========
[5256000] AHB: READ   Addr=0x87a6fd36  Data=0xxxxxxxxx
[5270000]   PASS - Checker: AHB→APB translation OK
[5310000]   APB Slave: Stored Write  Addr=0x8b61f7ec  Data=0xd8ff1269

[5316000] ========== AHB Transaction #84 ==========
[5316000] AHB: WRITE  Addr=0x89e5daec  Data=0x3ae92fe3
[5330000]   PASS - Checker: AHB→APB translation OK

[5356000] ========== AHB Transaction #85 ==========
[5356000] AHB: READ   Addr=0x84188d18  Data=0xxxxxxxxx
[5370000]   APB Slave: Read (MISS)   Addr=0x87a6fd36  Data=0xfd3602c9 [generated]
[5390000]   PASS - Checker: AHB→APB addr OK, APB Read Data=0xfd3602c9
[5410000]   APB Slave: Stored Write  Addr=0x89e5daec  Data=0x3ae92fe3

[5416000] ========== AHB Transaction #86 ==========
[5416000] AHB: READ   Addr=0x8236cd8c  Data=0xxxxxxxxx
[5430000]   PASS - Checker: AHB→APB translation OK

[5466000] ========== AHB Transaction #87 ==========
[5466000] AHB: READ   Addr=0x84c04474  Data=0xxxxxxxxx
[5470000]   APB Slave: Read (MISS)   Addr=0x84188d18  Data=0x8d1872e7 [generated]
[5490000]   PASS - Checker: AHB→APB addr OK, APB Read Data=0x8d1872e7

[5516000] ========== AHB Transaction #88 ==========
[5516000] AHB: WRITE  Addr=0x8be39760  Data=0x78d3b167
[5550000]   APB Slave: Read (MISS)   Addr=0x84c04474  Data=0x4474bb8b [generated]

[5556000] ========== AHB Transaction #89 ==========
[5556000] AHB: WRITE  Addr=0x8009179c  Data=0x2c1a750e
[5570000]   PASS - Checker: AHB→APB addr OK, APB Read Data=0x4474bb8b
[5610000]   APB Slave: Stored Write  Addr=0x8be39760  Data=0x78d3b167

[5616000] ========== AHB Transaction #90 ==========
[5616000] AHB: READ   Addr=0x82c507d0  Data=0xxxxxxxxx
[5630000]   PASS - Checker: AHB→APB translation OK
[5670000]   APB Slave: Stored Write  Addr=0x8009179c  Data=0x2c1a750e

[5676000] ========== AHB Transaction #91 ==========
[5676000] AHB: READ   Addr=0x8bb3ace0  Data=0xxxxxxxxx
[5690000]   PASS - Checker: AHB→APB translation OK

[5726000] ========== AHB Transaction #92 ==========
[5726000] AHB: WRITE  Addr=0x87247d74  Data=0x1b0da8ae
[5730000]   APB Slave: Read (MISS)   Addr=0x82c507d0  Data=0x7d0f82f [generated]
[5750000]   PASS - Checker: AHB→APB addr OK, APB Read Data=0x7d0f82f

[5766000] ========== AHB Transaction #93 ==========
[5766000] AHB: WRITE  Addr=0x896395fc  Data=0xe3e82bc2

[5826000] ========== AHB Transaction #94 ==========
[5826000] AHB: READ   Addr=0x8562bbb2  Data=0xxxxxxxxx

[5886000] ========== AHB Transaction #95 ==========
[5886000] AHB: READ   Addr=0x87242c44  Data=0xxxxxxxxx

[5936000] ========== AHB Transaction #96 ==========
[5936000] AHB: WRITE  Addr=0x86c38e68  Data=0x586d937
[5970000]   APB Slave: Read (MISS)   Addr=0x87242c44  Data=0x2c44d3bb [generated]

[5976000] ========== AHB Transaction #97 ==========
[5976000] AHB: WRITE  Addr=0x8817de00  Data=0x3c695994
[5990000]   PASS - Checker: AHB→APB addr OK, APB Read Data=0x2c44d3bb
[6030000]   APB Slave: Stored Write  Addr=0x86c38e68  Data=0x586d937

[6036000] ========== AHB Transaction #98 ==========
[6036000] AHB: WRITE  Addr=0x87b786f8  Data=0x6dab6c3d
[6050000]   PASS - Checker: AHB→APB translation OK
[6090000]   APB Slave: Stored Write  Addr=0x8817de00  Data=0x3c695994

[6096000] ========== AHB Transaction #99 ==========
[6096000] AHB: READ   Addr=0x8a8d1d7c  Data=0xxxxxxxxx
[6110000]   PASS - Checker: AHB→APB translation OK
[6150000]   APB Slave: Stored Write  Addr=0x87b786f8  Data=0x6dab6c3d

[6156000] ========== AHB Transaction #100 ==========
[6156000] AHB: WRITE  Addr=0x803e2c40  Data=0xb9123931
[6170000]   PASS - Checker: AHB→APB translation OK

[6196000] ========== AHB Transaction #101 ==========
[6196000] AHB: READ   Addr=0x8b91883e  Data=0xxxxxxxxx
[6210000]   APB Slave: Read (MISS)   Addr=0x8a8d1d7c  Data=0x1d7ce283 [generated]
[6230000]   PASS - Checker: AHB→APB addr OK, APB Read Data=0x1d7ce283
[6250000]   APB Slave: Stored Write  Addr=0x803e2c40  Data=0xb9123931

[6256000] ========== AHB Transaction #102 ==========
[6256000] AHB: READ   Addr=0x82d439a0  Data=0xxxxxxxxx
[6270000]   PASS - Checker: AHB→APB translation OK

[6306000] ========== AHB Transaction #103 ==========
[6306000] AHB: WRITE  Addr=0x8af62fdc  Data=0x7efef0e3
[6310000]   APB Slave: Read (MISS)   Addr=0x8b91883e  Data=0x883e77c1 [generated]
[6330000]   PASS - Checker: AHB→APB addr OK, APB Read Data=0x883e77c1

[6346000] ========== AHB Transaction #104 ==========
[6346000] AHB: WRITE  Addr=0x8061390c  Data=0xed0231ec

[6406000] ========== AHB Transaction #105 ==========
[6406000] AHB: WRITE  Addr=0x8aabe000  Data=0x4c6e2ab7

[6466000] ========== AHB Transaction #106 ==========
[6466000] AHB: READ   Addr=0x8354f118  Data=0xxxxxxxxx

[6526000] ========== AHB Transaction #107 ==========
[6526000] AHB: READ   Addr=0x86d32760  Data=0xxxxxxxxx

[6576000] ========== AHB Transaction #108 ==========
[6576000] AHB: READ   Addr=0x808a68d4  Data=0xxxxxxxxx
[6610000]   APB Slave: Read (MISS)   Addr=0x86d32760  Data=0x2760d89f [generated]

[6626000] ========== AHB Transaction #109 ==========
[6626000] AHB: READ   Addr=0x8786c1d0  Data=0xxxxxxxxx
[6630000]   PASS - Checker: AHB→APB addr OK, APB Read Data=0x2760d89f

[6676000] ========== AHB Transaction #110 ==========
[6676000] AHB: WRITE  Addr=0x82be8858  Data=0xe9e1ceb8
[6710000]   APB Slave: Read (MISS)   Addr=0x8786c1d0  Data=0xc1d03e2f [generated]

[6716000] ========== AHB Transaction #111 ==========
[6716000] AHB: READ   Addr=0x865cda30  Data=0xxxxxxxxx
[6730000]   PASS - Checker: AHB→APB addr OK, APB Read Data=0xc1d03e2f
[6770000]   APB Slave: Stored Write  Addr=0x82be8858  Data=0xe9e1ceb8

[6776000] ========== AHB Transaction #112 ==========
[6776000] AHB: WRITE  Addr=0x83f370f8  Data=0x492eed27
[6790000]   PASS - Checker: AHB→APB translation OK

[6816000] ========== AHB Transaction #113 ==========
[6816000] AHB: READ   Addr=0x81e25a5c  Data=0xxxxxxxxx
[6830000]   APB Slave: Read (MISS)   Addr=0x865cda30  Data=0xda3025cf [generated]
[6850000]   PASS - Checker: AHB→APB addr OK, APB Read Data=0xda3025cf
[6870000]   APB Slave: Stored Write  Addr=0x83f370f8  Data=0x492eed27

[6876000] ========== AHB Transaction #114 ==========
[6876000] AHB: READ   Addr=0x8b6f4ec0  Data=0xxxxxxxxx
[6890000]   PASS - Checker: AHB→APB translation OK

[6926000] ========== AHB Transaction #115 ==========
[6926000] AHB: WRITE  Addr=0x8753adc8  Data=0xb2c527f2
[6930000]   APB Slave: Read (MISS)   Addr=0x81e25a5c  Data=0x5a5ca5a3 [generated]
[6950000]   PASS - Checker: AHB→APB addr OK, APB Read Data=0x5a5ca5a3

[6966000] ========== AHB Transaction #116 ==========
[6966000] AHB: WRITE  Addr=0x8a3765d4  Data=0xc8467a55

[7026000] ========== AHB Transaction #117 ==========
[7026000] AHB: READ   Addr=0x818325b2  Data=0xxxxxxxxx

[7086000] ========== AHB Transaction #118 ==========
[7086000] AHB: WRITE  Addr=0x8a90bffc  Data=0x2857f54

[7126000] ========== AHB Transaction #119 ==========
[7126000] AHB: READ   Addr=0x89549b4c  Data=0xxxxxxxxx

[7186000] ========== AHB Transaction #120 ==========
[7186000] AHB: WRITE  Addr=0x84c0862c  Data=0xfc82226

[7226000] ========== AHB Transaction #121 ==========
[7226000] AHB: WRITE  Addr=0x8bc8b94c  Data=0x35d91453

[7256000] ========== AHB Transaction #122 ==========
[7256000] AHB: WRITE  Addr=0x8998f220  Data=0xfa7a1cb1
[7310000]   APB Slave: Stored Write  Addr=0x8bc8b94c  Data=0x35d91453

[7316000] ========== AHB Transaction #123 ==========
[7316000] AHB: WRITE  Addr=0x8349010c  Data=0x72d92e5e
[7330000]   PASS - Checker: AHB→APB translation OK
[7370000]   APB Slave: Stored Write  Addr=0x8998f220  Data=0xfa7a1cb1

[7376000] ========== AHB Transaction #124 ==========
[7376000] AHB: WRITE  Addr=0x8598207a  Data=0xb8b09e4e
[7390000]   PASS - Checker: AHB→APB translation OK
[7430000]   APB Slave: Stored Write  Addr=0x8349010c  Data=0x72d92e5e

[7436000] ========== AHB Transaction #125 ==========
[7436000] AHB: WRITE  Addr=0x84744aa8  Data=0x701ad32a
[7450000]   PASS - Checker: AHB→APB translation OK

[7466000] ========== AHB Transaction #126 ==========
[7466000] AHB: WRITE  Addr=0x802f3b7c  Data=0x42741dff

[7526000] ========== AHB Transaction #127 ==========
[7526000] AHB: WRITE  Addr=0x862f2fbc  Data=0xf4ac94ef

[7586000] ========== AHB Transaction #128 ==========
[7586000] AHB: WRITE  Addr=0x87aa1bbc  Data=0x8c26d243

[7646000] ========== AHB Transaction #129 ==========
[7646000] AHB: READ   Addr=0x8b68d14c  Data=0xxxxxxxxx

[7686000] ========== AHB Transaction #130 ==========
[7686000] AHB: WRITE  Addr=0x83193ea4  Data=0x5f5d0a74

[7726000] ========== AHB Transaction #131 ==========
[7726000] AHB: WRITE  Addr=0x8855ad24  Data=0xdcb5ffe4

[7786000] ========== AHB Transaction #132 ==========
[7786000] AHB: WRITE  Addr=0x8a0a8438  Data=0x685526bf

[7846000] ========== AHB Transaction #133 ==========
[7846000] AHB: READ   Addr=0x8842c37a  Data=0xxxxxxxxx

[7906000] ========== AHB Transaction #134 ==========
[7906000] AHB: WRITE  Addr=0x89458a10  Data=0x319669e2

[7946000] ========== AHB Transaction #135 ==========
[7946000] AHB: WRITE  Addr=0x87e3c618  Data=0xfe8f73ec

[8006000] ========== AHB Transaction #136 ==========
[8006000] AHB: WRITE  Addr=0x820d800c  Data=0x3cc808e8

[8066000] ========== AHB Transaction #137 ==========
[8066000] AHB: READ   Addr=0x87f86f54  Data=0xxxxxxxxx

[8126000] ========== AHB Transaction #138 ==========
[8126000] AHB: READ   Addr=0x82541aa0  Data=0xxxxxxxxx

[8176000] ========== AHB Transaction #139 ==========
[8176000] AHB: WRITE  Addr=0x83bd02f0  Data=0xa3b59009
[8210000]   APB Slave: Read (MISS)   Addr=0x82541aa0  Data=0x1aa0e55f [generated]

[8216000] ========== AHB Transaction #140 ==========
[8216000] AHB: READ   Addr=0x83ac1a6a  Data=0xxxxxxxxx
[8230000]   PASS - Checker: AHB→APB addr OK, APB Read Data=0x1aa0e55f
[8270000]   APB Slave: Stored Write  Addr=0x83bd02f0  Data=0xa3b59009

[8276000] ========== AHB Transaction #141 ==========
[8276000] AHB: WRITE  Addr=0x8b40ed84  Data=0xdac53a1
[8290000]   PASS - Checker: AHB→APB translation OK

[8316000] ========== AHB Transaction #142 ==========
[8316000] AHB: WRITE  Addr=0x8630ca4c  Data=0x42de79b4
[8330000]   APB Slave: Read (MISS)   Addr=0x83ac1a6a  Data=0x1a6ae595 [generated]
[8350000]   PASS - Checker: AHB→APB addr OK, APB Read Data=0x1a6ae595
[8370000]   APB Slave: Stored Write  Addr=0x8b40ed84  Data=0xdac53a1

[8376000] ========== AHB Transaction #143 ==========
[8376000] AHB: READ   Addr=0x8048684c  Data=0xxxxxxxxx
[8390000]   PASS - Checker: AHB→APB translation OK
[8430000]   APB Slave: Stored Write  Addr=0x8630ca4c  Data=0x42de79b4

[8436000] ========== AHB Transaction #144 ==========
[8436000] AHB: READ   Addr=0x8a24b30c  Data=0xxxxxxxxx
[8450000]   PASS - Checker: AHB→APB translation OK

[8486000] ========== AHB Transaction #145 ==========
[8486000] AHB: WRITE  Addr=0x8519256c  Data=0xe98ba3ef
[8490000]   APB Slave: Read (MISS)   Addr=0x8048684c  Data=0x684c97b3 [generated]
[8510000]   PASS - Checker: AHB→APB addr OK, APB Read Data=0x684c97b3

[8526000] ========== AHB Transaction #146 ==========
[8526000] AHB: READ   Addr=0x82c5424c  Data=0xxxxxxxxx

[8586000] ========== AHB Transaction #147 ==========
[8586000] AHB: WRITE  Addr=0x887963c4  Data=0x1b7c0d6a

[8626000] ========== AHB Transaction #148 ==========
[8626000] AHB: READ   Addr=0x8034b6ba  Data=0xxxxxxxxx

[8686000] ========== AHB Transaction #149 ==========
[8686000] AHB: READ   Addr=0x83752706  Data=0xxxxxxxxx

[8736000] ========== AHB Transaction #150 ==========
[8736000] AHB: READ   Addr=0x801c19be  Data=0xxxxxxxxx
[8770000]   APB Slave: Read (MISS)   Addr=0x83752706  Data=0x2706d8f9 [generated]

[8786000] ========== AHB Transaction #151 ==========
[8786000] AHB: READ   Addr=0x86e677d4  Data=0xxxxxxxxx
[8790000]   PASS - Checker: AHB→APB addr OK, APB Read Data=0x2706d8f9

[8836000] ========== AHB Transaction #152 ==========
[8836000] AHB: READ   Addr=0x8ab7f75c  Data=0xxxxxxxxx
[8870000]   APB Slave: Read (MISS)   Addr=0x86e677d4  Data=0x77d4882b [generated]

[8886000] ========== AHB Transaction #153 ==========
[8886000] AHB: READ   Addr=0x87652b10  Data=0xxxxxxxxx
[8890000]   PASS - Checker: AHB→APB addr OK, APB Read Data=0x77d4882b

[8936000] ========== AHB Transaction #154 ==========
[8936000] AHB: READ   Addr=0x8453b964  Data=0xxxxxxxxx
[8970000]   APB Slave: Read (MISS)   Addr=0x87652b10  Data=0x2b10d4ef [generated]

[8986000] ========== AHB Transaction #155 ==========
[8986000] AHB: READ   Addr=0x880ec25a  Data=0xxxxxxxxx
[8990000]   PASS - Checker: AHB→APB addr OK, APB Read Data=0x2b10d4ef

[9026000] ========== AHB Transaction #156 ==========
[9026000] AHB: WRITE  Addr=0x83286f64  Data=0xab1102a6

[9056000] ========== AHB Transaction #157 ==========
[9056000] AHB: READ   Addr=0x898923fc  Data=0xxxxxxxxx
[9110000]   APB Slave: Stored Write  Addr=0x83286f64  Data=0xab1102a6

[9116000] ========== AHB Transaction #158 ==========
[9116000] AHB: READ   Addr=0x81ef46ce  Data=0xxxxxxxxx
[9130000]   PASS - Checker: AHB→APB translation OK

[9166000] ========== AHB Transaction #159 ==========
[9166000] AHB: READ   Addr=0x843698dc  Data=0xxxxxxxxx
[9170000]   APB Slave: Read (MISS)   Addr=0x898923fc  Data=0x23fcdc03 [generated]
[9190000]   PASS - Checker: AHB→APB addr OK, APB Read Data=0x23fcdc03

[9216000] ========== AHB Transaction #160 ==========
[9216000] AHB: READ   Addr=0x86d5fa44  Data=0xxxxxxxxx
[9250000]   APB Slave: Read (MISS)   Addr=0x843698dc  Data=0x98dc6723 [generated]

[9266000] ========== AHB Transaction #161 ==========
[9266000] AHB: WRITE  Addr=0x8a0bb154  Data=0xd6f2728c
[9270000]   PASS - Checker: AHB→APB addr OK, APB Read Data=0x98dc6723

[9306000] ========== AHB Transaction #162 ==========
[9306000] AHB: READ   Addr=0x83e70f54  Data=0xxxxxxxxx

[9366000] ========== AHB Transaction #163 ==========
[9366000] AHB: WRITE  Addr=0x8b7cf2bc  Data=0xa1275690

[9406000] ========== AHB Transaction #164 ==========
[9406000] AHB: READ   Addr=0x8b082420  Data=0xxxxxxxxx

[9466000] ========== AHB Transaction #165 ==========
[9466000] AHB: WRITE  Addr=0x8b2da588  Data=0x5e124266

[9506000] ========== AHB Transaction #166 ==========
[9506000] AHB: WRITE  Addr=0x8273dacc  Data=0xbb7f663e

[9566000] ========== AHB Transaction #167 ==========
[9566000] AHB: READ   Addr=0x874e5ad4  Data=0xxxxxxxxx

[9626000] ========== AHB Transaction #168 ==========
[9626000] AHB: READ   Addr=0x88683a4c  Data=0xxxxxxxxx

[9676000] ========== AHB Transaction #169 ==========
[9676000] AHB: WRITE  Addr=0x8b893a54  Data=0x6a6d71c2
[9710000]   APB Slave: Read (MISS)   Addr=0x88683a4c  Data=0x3a4cc5b3 [generated]

[9716000] ========== AHB Transaction #170 ==========
[9716000] AHB: READ   Addr=0x8033ee84  Data=0xxxxxxxxx
[9730000]   PASS - Checker: AHB→APB addr OK, APB Read Data=0x3a4cc5b3
[9770000]   APB Slave: Stored Write  Addr=0x8b893a54  Data=0x6a6d71c2

[9776000] ========== AHB Transaction #171 ==========
[9776000] AHB: READ   Addr=0x8bd55bd0  Data=0xxxxxxxxx
[9790000]   PASS - Checker: AHB→APB translation OK

[9826000] ========== AHB Transaction #172 ==========
[9826000] AHB: WRITE  Addr=0x8a8d0e0c  Data=0x2068d540
[9830000]   APB Slave: Read (MISS)   Addr=0x8033ee84  Data=0xee84117b [generated]
[9850000]   PASS - Checker: AHB→APB addr OK, APB Read Data=0xee84117b

[9866000] ========== AHB Transaction #173 ==========
[9866000] AHB: READ   Addr=0x854c9740  Data=0xxxxxxxxx

[9926000] ========== AHB Transaction #174 ==========
[9926000] AHB: READ   Addr=0x86d6a43a  Data=0xxxxxxxxx

[9976000] ========== AHB Transaction #175 ==========
[9976000] AHB: READ   Addr=0x80157c0c  Data=0xxxxxxxxx
[10010000]   APB Slave: Read (MISS)   Addr=0x86d6a43a  Data=0xa43a5bc5 [generated]

[10026000] ========== AHB Transaction #176 ==========
[10026000] AHB: READ   Addr=0x81f38da8  Data=0xxxxxxxxx
[10030000]   PASS - Checker: AHB→APB addr OK, APB Read Data=0xa43a5bc5

[10076000] ========== AHB Transaction #177 ==========
[10076000] AHB: READ   Addr=0x8adb4ede  Data=0xxxxxxxxx
[10110000]   APB Slave: Read (MISS)   Addr=0x81f38da8  Data=0x8da87257 [generated]

[10126000] ========== AHB Transaction #178 ==========
[10126000] AHB: READ   Addr=0x81517854  Data=0xxxxxxxxx
[10130000]   PASS - Checker: AHB→APB addr OK, APB Read Data=0x8da87257

[10176000] ========== AHB Transaction #179 ==========
[10176000] AHB: READ   Addr=0x8a2acc34  Data=0xxxxxxxxx
[10210000]   APB Slave: Read (MISS)   Addr=0x81517854  Data=0x785487ab [generated]

[10226000] ========== AHB Transaction #180 ==========
[10226000] AHB: WRITE  Addr=0x8030bae4  Data=0x2e7148dc
[10230000]   PASS - Checker: AHB→APB addr OK, APB Read Data=0x785487ab

[10266000] ========== AHB Transaction #181 ==========
[10266000] AHB: WRITE  Addr=0x81bed9bc  Data=0xf2b2de98

[10326000] ========== AHB Transaction #182 ==========
[10326000] AHB: WRITE  Addr=0x8ad11abc  Data=0x936ab55b

[10386000] ========== AHB Transaction #183 ==========
[10386000] AHB: WRITE  Addr=0x89a7ed7a  Data=0x5d2b011c

[10446000] ========== AHB Transaction #184 ==========
[10446000] AHB: READ   Addr=0x88e2dc30  Data=0xxxxxxxxx

[10506000] ========== AHB Transaction #185 ==========
[10506000] AHB: WRITE  Addr=0x84e08a64  Data=0xb7e12d75

[10536000] ========== AHB Transaction #186 ==========
[10536000] AHB: READ   Addr=0x8605dcea  Data=0xxxxxxxxx
[10590000]   APB Slave: Stored Write  Addr=0x84e08a64  Data=0xb7e12d75

[10596000] ========== AHB Transaction #187 ==========
[10596000] AHB: READ   Addr=0x840015c0  Data=0xxxxxxxxx
[10610000]   PASS - Checker: AHB→APB translation OK

[10636000] ========== AHB Transaction #188 ==========
[10636000] AHB: WRITE  Addr=0x88b0a534  Data=0xf6f24c10
[10650000]   APB Slave: Read (MISS)   Addr=0x8605dcea  Data=0xdcea2315 [generated]

[10666000] ========== AHB Transaction #189 ==========
[10666000] AHB: WRITE  Addr=0x86d140e8  Data=0xcdc959e
[10670000]   PASS - Checker: AHB→APB addr OK, APB Read Data=0xdcea2315

[10726000] ========== AHB Transaction #190 ==========
[10726000] AHB: READ   Addr=0x8095f5a6  Data=0xxxxxxxxx

[10786000] ========== AHB Transaction #191 ==========
[10786000] AHB: WRITE  Addr=0x8042b8c4  Data=0xdc8a288a

[10826000] ========== AHB Transaction #192 ==========
[10826000] AHB: READ   Addr=0x8a736cac  Data=0xxxxxxxxx

[10886000] ========== AHB Transaction #193 ==========
[10886000] AHB: READ   Addr=0x849a2954  Data=0xxxxxxxxx

[10926000] ========== AHB Transaction #194 ==========
[10926000] AHB: WRITE  Addr=0x82a66f54  Data=0xef3eefc9

[10956000] ========== AHB Transaction #195 ==========
[10956000] AHB: READ   Addr=0x806d7638  Data=0xxxxxxxxx
[11010000]   APB Slave: Stored Write  Addr=0x82a66f54  Data=0xef3eefc9

[11016000] ========== AHB Transaction #196 ==========
[11016000] AHB: READ   Addr=0x83cbd11c  Data=0xxxxxxxxx
[11030000]   PASS - Checker: AHB→APB translation OK

[11056000] ========== AHB Transaction #197 ==========
[11056000] AHB: READ   Addr=0x80692020  Data=0xxxxxxxxx
[11090000]   APB Slave: Read (MISS)   Addr=0x83cbd11c  Data=0xd11c2ee3 [generated]

[11106000] ========== AHB Transaction #198 ==========
[11106000] AHB: READ   Addr=0x87f916c4  Data=0xxxxxxxxx
[11110000]   PASS - Checker: AHB→APB addr OK, APB Read Data=0xd11c2ee3

[11156000] ========== AHB Transaction #199 ==========
[11156000] AHB: WRITE  Addr=0x888c4d20  Data=0x86b583a4
[11190000]   APB Slave: Read (MISS)   Addr=0x87f916c4  Data=0x16c4e93b [generated]

[11196000] ========== AHB Transaction #200 ==========
[11196000] AHB: WRITE  Addr=0x89aa346a  Data=0xb3f698a3
[11210000]   PASS - Checker: AHB→APB addr OK, APB Read Data=0x16c4e93b
[11250000]   APB Slave: Stored Write  Addr=0x888c4d20  Data=0x86b583a4

[11256000] ========== AHB Transaction #201 ==========
[11256000] AHB: READ   Addr=0x8a31f70e  Data=0xxxxxxxxx
[11270000]   PASS - Checker: AHB→APB translation OK
[11310000]   APB Slave: Stored Write  Addr=0x89aa346a  Data=0xb3f698a3

[11316000] ========== AHB Transaction #202 ==========
[11316000] AHB: WRITE  Addr=0x87c65f9c  Data=0xd0db5762
[11330000]   PASS - Checker: AHB→APB translation OK

[11356000] ========== AHB Transaction #203 ==========
[11356000] AHB: READ   Addr=0x89a97c72  Data=0xxxxxxxxx
[11370000]   APB Slave: Read (MISS)   Addr=0x8a31f70e  Data=0xf70e08f1 [generated]
[11390000]   PASS - Checker: AHB→APB addr OK, APB Read Data=0xf70e08f1
[11410000]   APB Slave: Stored Write  Addr=0x87c65f9c  Data=0xd0db5762

[11416000] ========== AHB Transaction #204 ==========
[11416000] AHB: READ   Addr=0x80ebfbb0  Data=0xxxxxxxxx
[11430000]   PASS - Checker: AHB→APB translation OK

[11466000] ========== AHB Transaction #205 ==========
[11466000] AHB: WRITE  Addr=0x8106b294  Data=0x1d742365
[11470000]   APB Slave: Read (MISS)   Addr=0x89a97c72  Data=0x7c72838d [generated]
[11490000]   PASS - Checker: AHB→APB addr OK, APB Read Data=0x7c72838d

[11506000] ========== AHB Transaction #206 ==========
[11506000] AHB: READ   Addr=0x8beb0488  Data=0xxxxxxxxx

[11566000] ========== AHB Transaction #207 ==========
[11566000] AHB: READ   Addr=0x8afd0cc0  Data=0xxxxxxxxx

[11616000] ========== AHB Transaction #208 ==========
[11616000] AHB: WRITE  Addr=0x8959d6b0  Data=0x38aba1e4
[11650000]   APB Slave: Read (MISS)   Addr=0x8afd0cc0  Data=0xcc0f33f [generated]

[11656000] ========== AHB Transaction #209 ==========
[11656000] AHB: READ   Addr=0x8985903c  Data=0xxxxxxxxx
[11670000]   PASS - Checker: AHB→APB addr OK, APB Read Data=0xcc0f33f
[11710000]   APB Slave: Stored Write  Addr=0x8959d6b0  Data=0x38aba1e4

[11716000] ========== AHB Transaction #210 ==========
[11716000] AHB: READ   Addr=0x82deea68  Data=0xxxxxxxxx
[11730000]   PASS - Checker: AHB→APB translation OK

[11766000] ========== AHB Transaction #211 ==========
[11766000] AHB: READ   Addr=0x8b373a74  Data=0xxxxxxxxx
[11770000]   APB Slave: Read (MISS)   Addr=0x8985903c  Data=0x903c6fc3 [generated]
[11790000]   PASS - Checker: AHB→APB addr OK, APB Read Data=0x903c6fc3

[11816000] ========== AHB Transaction #212 ==========
[11816000] AHB: WRITE  Addr=0x82bea6f0  Data=0xa1114327
[11850000]   APB Slave: Read (MISS)   Addr=0x8b373a74  Data=0x3a74c58b [generated]

[11856000] ========== AHB Transaction #213 ==========
[11856000] AHB: WRITE  Addr=0x8b6a1a40  Data=0xe982505d
[11870000]   PASS - Checker: AHB→APB addr OK, APB Read Data=0x3a74c58b
[11910000]   APB Slave: Stored Write  Addr=0x82bea6f0  Data=0xa1114327

[11916000] ========== AHB Transaction #214 ==========
[11916000] AHB: WRITE  Addr=0x823ae6a8  Data=0x7b4c66f1
[11930000]   PASS - Checker: AHB→APB translation OK
[11970000]   APB Slave: Stored Write  Addr=0x8b6a1a40  Data=0xe982505d

[11976000] ========== AHB Transaction #215 ==========
[11976000] AHB: READ   Addr=0x817b0fa4  Data=0xxxxxxxxx
[11990000]   PASS - Checker: AHB→APB translation OK
[12030000]   APB Slave: Stored Write  Addr=0x823ae6a8  Data=0x7b4c66f1

[12036000] ========== AHB Transaction #216 ==========
[12036000] AHB: READ   Addr=0x8381e994  Data=0xxxxxxxxx
[12050000]   PASS - Checker: AHB→APB translation OK

[12086000] ========== AHB Transaction #217 ==========
[12086000] AHB: WRITE  Addr=0x81e4fd90  Data=0xb55d35f4
[12090000]   APB Slave: Read (MISS)   Addr=0x817b0fa4  Data=0xfa4f05b [generated]
[12110000]   PASS - Checker: AHB→APB addr OK, APB Read Data=0xfa4f05b

[12126000] ========== AHB Transaction #218 ==========
[12126000] AHB: READ   Addr=0x81d7787c  Data=0xxxxxxxxx

[12186000] ========== AHB Transaction #219 ==========
[12186000] AHB: READ   Addr=0x879ed500  Data=0xxxxxxxxx

[12236000] ========== AHB Transaction #220 ==========
[12236000] AHB: READ   Addr=0x83d5d4e0  Data=0xxxxxxxxx
[12270000]   APB Slave: Read (MISS)   Addr=0x879ed500  Data=0xd5002aff [generated]

[12286000] ========== AHB Transaction #221 ==========
[12286000] AHB: READ   Addr=0x8884505c  Data=0xxxxxxxxx
[12290000]   PASS - Checker: AHB→APB addr OK, APB Read Data=0xd5002aff

[12326000] ========== AHB Transaction #222 ==========
[12326000] AHB: WRITE  Addr=0x824e8c9a  Data=0xa890b385

[12356000] ========== AHB Transaction #223 ==========
[12356000] AHB: READ   Addr=0x8537623c  Data=0xxxxxxxxx
[12410000]   APB Slave: Stored Write  Addr=0x824e8c9a  Data=0xa890b385

[12416000] ========== AHB Transaction #224 ==========
[12416000] AHB: WRITE  Addr=0x86578cb4  Data=0xe94be9c2
[12430000]   PASS - Checker: AHB→APB translation OK

[12456000] ========== AHB Transaction #225 ==========
[12456000] AHB: READ   Addr=0x8ab4f174  Data=0xxxxxxxxx
[12470000]   APB Slave: Read (MISS)   Addr=0x8537623c  Data=0x623c9dc3 [generated]
[12490000]   PASS - Checker: AHB→APB addr OK, APB Read Data=0x623c9dc3
[12510000]   APB Slave: Stored Write  Addr=0x86578cb4  Data=0xe94be9c2

[12516000] ========== AHB Transaction #226 ==========
[12516000] AHB: WRITE  Addr=0x81d92a18  Data=0x2288b69b
[12530000]   PASS - Checker: AHB→APB translation OK

[12556000] ========== AHB Transaction #227 ==========
[12556000] AHB: READ   Addr=0x80461ab0  Data=0xxxxxxxxx
[12570000]   APB Slave: Read (MISS)   Addr=0x8ab4f174  Data=0xf1740e8b [generated]
[12590000]   PASS - Checker: AHB→APB addr OK, APB Read Data=0xf1740e8b
[12610000]   APB Slave: Stored Write  Addr=0x81d92a18  Data=0x2288b69b

[12616000] ========== AHB Transaction #228 ==========
[12616000] AHB: READ   Addr=0x852bb824  Data=0xxxxxxxxx
[12630000]   PASS - Checker: AHB→APB translation OK

[12666000] ========== AHB Transaction #229 ==========
[12666000] AHB: READ   Addr=0x867e4950  Data=0xxxxxxxxx
[12670000]   APB Slave: Read (MISS)   Addr=0x80461ab0  Data=0x1ab0e54f [generated]
[12690000]   PASS - Checker: AHB→APB addr OK, APB Read Data=0x1ab0e54f

[12716000] ========== AHB Transaction #230 ==========
[12716000] AHB: WRITE  Addr=0x8952cdc0  Data=0x1516c507
[12750000]   APB Slave: Read (MISS)   Addr=0x867e4950  Data=0x4950b6af [generated]

[12756000] ========== AHB Transaction #231 ==========
[12756000] AHB: READ   Addr=0x848307ac  Data=0xxxxxxxxx
[12770000]   PASS - Checker: AHB→APB addr OK, APB Read Data=0x4950b6af
[12810000]   APB Slave: Stored Write  Addr=0x8952cdc0  Data=0x1516c507

[12816000] ========== AHB Transaction #232 ==========
[12816000] AHB: READ   Addr=0x82424c28  Data=0xxxxxxxxx
[12830000]   PASS - Checker: AHB→APB translation OK

[12866000] ========== AHB Transaction #233 ==========
[12866000] AHB: READ   Addr=0x82e35ed4  Data=0xxxxxxxxx
[12870000]   APB Slave: Read (MISS)   Addr=0x848307ac  Data=0x7acf853 [generated]
[12890000]   PASS - Checker: AHB→APB addr OK, APB Read Data=0x7acf853

[12916000] ========== AHB Transaction #234 ==========
[12916000] AHB: READ   Addr=0x891c7ff8  Data=0xxxxxxxxx
[12950000]   APB Slave: Read (MISS)   Addr=0x82e35ed4  Data=0x5ed4a12b [generated]

[12966000] ========== AHB Transaction #235 ==========
[12966000] AHB: READ   Addr=0x80382f28  Data=0xxxxxxxxx
[12970000]   PASS - Checker: AHB→APB addr OK, APB Read Data=0x5ed4a12b

[13016000] ========== AHB Transaction #236 ==========
[13016000] AHB: WRITE  Addr=0x876ed9da  Data=0xfef59ac7
[13050000]   APB Slave: Read (MISS)   Addr=0x80382f28  Data=0x2f28d0d7 [generated]

[13056000] ========== AHB Transaction #237 ==========
[13056000] AHB: READ   Addr=0x85d3d740  Data=0xxxxxxxxx
[13070000]   PASS - Checker: AHB→APB addr OK, APB Read Data=0x2f28d0d7
[13110000]   APB Slave: Stored Write  Addr=0x876ed9da  Data=0xfef59ac7

[13116000] ========== AHB Transaction #238 ==========
[13116000] AHB: WRITE  Addr=0x8b24ec60  Data=0xd4034e24
[13130000]   PASS - Checker: AHB→APB translation OK

[13156000] ========== AHB Transaction #239 ==========
[13156000] AHB: WRITE  Addr=0x82d3e754  Data=0x3e68cb3f
[13170000]   APB Slave: Read (MISS)   Addr=0x85d3d740  Data=0xd74028bf [generated]
[13190000]   PASS - Checker: AHB→APB addr OK, APB Read Data=0xd74028bf
[13210000]   APB Slave: Stored Write  Addr=0x8b24ec60  Data=0xd4034e24

[13216000] ========== AHB Transaction #240 ==========
[13216000] AHB: WRITE  Addr=0x85e16dfc  Data=0x6a79a1d
[13230000]   PASS - Checker: AHB→APB translation OK
[13270000]   APB Slave: Stored Write  Addr=0x82d3e754  Data=0x3e68cb3f

[13276000] ========== AHB Transaction #241 ==========
[13276000] AHB: WRITE  Addr=0x873d2e00  Data=0x76dcb78e
[13290000]   PASS - Checker: AHB→APB translation OK
[13330000]   APB Slave: Stored Write  Addr=0x85e16dfc  Data=0x6a79a1d

[13336000] ========== AHB Transaction #242 ==========
[13336000] AHB: WRITE  Addr=0x8b14c3ea  Data=0x7ac1e0d9
[13350000]   PASS - Checker: AHB→APB translation OK
[13390000]   APB Slave: Stored Write  Addr=0x873d2e00  Data=0x76dcb78e

[13396000] ========== AHB Transaction #243 ==========
[13396000] AHB: WRITE  Addr=0x897dbe60  Data=0x8cc28384
[13410000]   PASS - Checker: AHB→APB translation OK
[13450000]   APB Slave: Stored Write  Addr=0x8b14c3ea  Data=0x7ac1e0d9

[13456000] ========== AHB Transaction #244 ==========
[13456000] AHB: WRITE  Addr=0x8256a9f4  Data=0x82f08108
[13470000]   PASS - Checker: AHB→APB translation OK
[13510000]   APB Slave: Stored Write  Addr=0x897dbe60  Data=0x8cc28384

[13516000] ========== AHB Transaction #245 ==========
[13516000] AHB: READ   Addr=0x882fa778  Data=0xxxxxxxxx
[13530000]   PASS - Checker: AHB→APB translation OK
[13570000]   APB Slave: Stored Write  Addr=0x8256a9f4  Data=0x82f08108

[13576000] ========== AHB Transaction #246 ==========
[13576000] AHB: WRITE  Addr=0x88cb408c  Data=0xa4e12868
[13590000]   PASS - Checker: AHB→APB translation OK

[13616000] ========== AHB Transaction #247 ==========
[13616000] AHB: READ   Addr=0x8ad01022  Data=0xxxxxxxxx
[13630000]   APB Slave: Read (MISS)   Addr=0x882fa778  Data=0xa7785887 [generated]
[13650000]   PASS - Checker: AHB→APB addr OK, APB Read Data=0xa7785887
[13670000]   APB Slave: Stored Write  Addr=0x88cb408c  Data=0xa4e12868

[13676000] ========== AHB Transaction #248 ==========
[13676000] AHB: WRITE  Addr=0x8bde94e0  Data=0xc63467e5
[13690000]   PASS - Checker: AHB→APB translation OK

[13706000] ========== AHB Transaction #249 ==========
[13706000] AHB: READ   Addr=0x8ba4c9fc  Data=0xxxxxxxxx

[13766000] ========== AHB Transaction #250 ==========
[13766000] AHB: READ   Addr=0x8523fcac  Data=0xxxxxxxxx

[13806000] ========== AHB Transaction #251 ==========
[13806000] AHB: READ   Addr=0x8b19e6ba  Data=0xxxxxxxxx

[13856000] ========== AHB Transaction #252 ==========
[13856000] AHB: READ   Addr=0x876cd7ac  Data=0xxxxxxxxx
[13890000]   APB Slave: Read (MISS)   Addr=0x8b19e6ba  Data=0xe6ba1945 [generated]

[13906000] ========== AHB Transaction #253 ==========
[13906000] AHB: READ   Addr=0x8b8dcf04  Data=0xxxxxxxxx
[13910000]   PASS - Checker: AHB→APB addr OK, APB Read Data=0xe6ba1945

[13956000] ========== AHB Transaction #254 ==========
[13956000] AHB: WRITE  Addr=0x8a000bc0  Data=0x877256a8
[13990000]   APB Slave: Read (MISS)   Addr=0x8b8dcf04  Data=0xcf0430fb [generated]

[13996000] ========== AHB Transaction #255 ==========
[13996000] AHB: READ   Addr=0x8074d318  Data=0xxxxxxxxx
[14010000]   PASS - Checker: AHB→APB addr OK, APB Read Data=0xcf0430fb
[14050000]   APB Slave: Stored Write  Addr=0x8a000bc0  Data=0x877256a8

[14056000] ========== AHB Transaction #256 ==========
[14056000] AHB: WRITE  Addr=0x87f7d6c0  Data=0xf61dd764
[14070000]   PASS - Checker: AHB→APB translation OK

[14096000] ========== AHB Transaction #257 ==========
[14096000] AHB: READ   Addr=0x8945a67a  Data=0xxxxxxxxx
[14110000]   APB Slave: Read (MISS)   Addr=0x8074d318  Data=0xd3182ce7 [generated]
[14130000]   PASS - Checker: AHB→APB addr OK, APB Read Data=0xd3182ce7
[14150000]   APB Slave: Stored Write  Addr=0x87f7d6c0  Data=0xf61dd764

[14156000] ========== AHB Transaction #258 ==========
[14156000] AHB: READ   Addr=0x880d2268  Data=0xxxxxxxxx
[14170000]   PASS - Checker: AHB→APB translation OK

[14206000] ========== AHB Transaction #259 ==========
[14206000] AHB: WRITE  Addr=0x86c098c0  Data=0x3ab5c486
[14210000]   APB Slave: Read (MISS)   Addr=0x8945a67a  Data=0xa67a5985 [generated]
[14230000]   PASS - Checker: AHB→APB addr OK, APB Read Data=0xa67a5985

[14246000] ========== AHB Transaction #260 ==========
[14246000] AHB: WRITE  Addr=0x8670233c  Data=0xa11752ed

[14306000] ========== AHB Transaction #261 ==========
[14306000] AHB: READ   Addr=0x87536208  Data=0xxxxxxxxx

[14366000] ========== AHB Transaction #262 ==========
[14366000] AHB: READ   Addr=0x808965b0  Data=0xxxxxxxxx

[14416000] ========== AHB Transaction #263 ==========
[14416000] AHB: WRITE  Addr=0x8169f4f8  Data=0x8c1b7fbb
[14450000]   APB Slave: Read (MISS)   Addr=0x808965b0  Data=0x65b09a4f [generated]

[14456000] ========== AHB Transaction #264 ==========
[14456000] AHB: READ   Addr=0x8351e718  Data=0xxxxxxxxx
[14470000]   PASS - Checker: AHB→APB addr OK, APB Read Data=0x65b09a4f
[14510000]   APB Slave: Stored Write  Addr=0x8169f4f8  Data=0x8c1b7fbb

[14516000] ========== AHB Transaction #265 ==========
[14516000] AHB: WRITE  Addr=0x8344e222  Data=0xe9a3e3cb
[14530000]   PASS - Checker: AHB→APB translation OK

[14556000] ========== AHB Transaction #266 ==========
[14556000] AHB: READ   Addr=0x84add560  Data=0xxxxxxxxx
[14570000]   APB Slave: Read (MISS)   Addr=0x8351e718  Data=0xe71818e7 [generated]
[14590000]   PASS - Checker: AHB→APB addr OK, APB Read Data=0xe71818e7
[14610000]   APB Slave: Stored Write  Addr=0x8344e222  Data=0xe9a3e3cb

[14616000] ========== AHB Transaction #267 ==========
[14616000] AHB: WRITE  Addr=0x8b5449e0  Data=0xe39fd40e
[14630000]   PASS - Checker: AHB→APB translation OK

[14656000] ========== AHB Transaction #268 ==========
[14656000] AHB: WRITE  Addr=0x84398db8  Data=0xcc94b08e
[14670000]   APB Slave: Read (MISS)   Addr=0x84add560  Data=0xd5602a9f [generated]
[14690000]   PASS - Checker: AHB→APB addr OK, APB Read Data=0xd5602a9f
[14710000]   APB Slave: Stored Write  Addr=0x8b5449e0  Data=0xe39fd40e

[14716000] ========== AHB Transaction #269 ==========
[14716000] AHB: WRITE  Addr=0x88183db0  Data=0xcfef83e
[14730000]   PASS - Checker: AHB→APB translation OK
[14770000]   APB Slave: Stored Write  Addr=0x84398db8  Data=0xcc94b08e

[14776000] ========== AHB Transaction #270 ==========
[14776000] AHB: READ   Addr=0x815ab9d8  Data=0xxxxxxxxx
[14790000]   PASS - Checker: AHB→APB translation OK
[14830000]   APB Slave: Stored Write  Addr=0x88183db0  Data=0xcfef83e

[14836000] ========== AHB Transaction #271 ==========
[14836000] AHB: READ   Addr=0x89256066  Data=0xxxxxxxxx
[14850000]   PASS - Checker: AHB→APB translation OK

[14886000] ========== AHB Transaction #272 ==========
[14886000] AHB: READ   Addr=0x8bb06218  Data=0xxxxxxxxx
[14890000]   APB Slave: Read (MISS)   Addr=0x815ab9d8  Data=0xb9d84627 [generated]
[14910000]   PASS - Checker: AHB→APB addr OK, APB Read Data=0xb9d84627

[14936000] ========== AHB Transaction #273 ==========
[14936000] AHB: WRITE  Addr=0x8a26ee78  Data=0xd51412b9
[14970000]   APB Slave: Read (MISS)   Addr=0x8bb06218  Data=0x62189de7 [generated]

[14976000] ========== AHB Transaction #274 ==========
[14976000] AHB: READ   Addr=0x8ae1a770  Data=0xxxxxxxxx
[14990000]   PASS - Checker: AHB→APB addr OK, APB Read Data=0x62189de7
[15030000]   APB Slave: Stored Write  Addr=0x8a26ee78  Data=0xd51412b9

[15036000] ========== AHB Transaction #275 ==========
[15036000] AHB: READ   Addr=0x8508accc  Data=0xxxxxxxxx
[15050000]   PASS - Checker: AHB→APB translation OK

[15076000] ========== AHB Transaction #276 ==========
[15076000] AHB: READ   Addr=0x8668ace4  Data=0xxxxxxxxx
[15110000]   APB Slave: Read (MISS)   Addr=0x8508accc  Data=0xaccc5333 [generated]

[15126000] ========== AHB Transaction #277 ==========
[15126000] AHB: READ   Addr=0x864014ca  Data=0xxxxxxxxx
[15130000]   PASS - Checker: AHB→APB addr OK, APB Read Data=0xaccc5333

[15176000] ========== AHB Transaction #278 ==========
[15176000] AHB: WRITE  Addr=0x8bc6c808  Data=0x965cad4a
[15210000]   APB Slave: Read (MISS)   Addr=0x864014ca  Data=0x14caeb35 [generated]

[15216000] ========== AHB Transaction #279 ==========
[15216000] AHB: WRITE  Addr=0x80c912dc  Data=0xdd0c3849
[15230000]   PASS - Checker: AHB→APB addr OK, APB Read Data=0x14caeb35

[15246000] ========== AHB Transaction #280 ==========
[15246000] AHB: WRITE  Addr=0x89fe64c2  Data=0x718e7d35

[15306000] ========== AHB Transaction #281 ==========
[15306000] AHB: READ   Addr=0x829488dc  Data=0xxxxxxxxx

[15366000] ========== AHB Transaction #282 ==========
[15366000] AHB: READ   Addr=0x8af9ca8c  Data=0xxxxxxxxx

[15406000] ========== AHB Transaction #283 ==========
[15406000] AHB: WRITE  Addr=0x8a3cd054  Data=0x2ffceb1a

[15436000] ========== AHB Transaction #284 ==========
[15436000] AHB: READ   Addr=0x8884b78e  Data=0xxxxxxxxx
[15490000]   APB Slave: Stored Write  Addr=0x8a3cd054  Data=0x2ffceb1a

[15496000] ========== AHB Transaction #285 ==========
[15496000] AHB: WRITE  Addr=0x85a33708  Data=0x7be6360
[15510000]   PASS - Checker: AHB→APB translation OK

[15536000] ========== AHB Transaction #286 ==========
[15536000] AHB: READ   Addr=0x841bd8dc  Data=0xxxxxxxxx
[15550000]   APB Slave: Read (MISS)   Addr=0x8884b78e  Data=0xb78e4871 [generated]
[15570000]   PASS - Checker: AHB→APB addr OK, APB Read Data=0xb78e4871
[15590000]   APB Slave: Stored Write  Addr=0x85a33708  Data=0x7be6360

[15596000] ========== AHB Transaction #287 ==========
[15596000] AHB: WRITE  Addr=0x84027c54  Data=0xe997b14
[15610000]   PASS - Checker: AHB→APB translation OK

[15636000] ========== AHB Transaction #288 ==========
[15636000] AHB: WRITE  Addr=0x854a6680  Data=0xfa4aeae1
[15650000]   APB Slave: Read (MISS)   Addr=0x841bd8dc  Data=0xd8dc2723 [generated]
[15670000]   PASS - Checker: AHB→APB addr OK, APB Read Data=0xd8dc2723
[15690000]   APB Slave: Stored Write  Addr=0x84027c54  Data=0xe997b14

[15696000] ========== AHB Transaction #289 ==========
[15696000] AHB: READ   Addr=0x83673d70  Data=0xxxxxxxxx
[15710000]   PASS - Checker: AHB→APB translation OK
[15750000]   APB Slave: Stored Write  Addr=0x854a6680  Data=0xfa4aeae1

[15756000] ========== AHB Transaction #290 ==========
[15756000] AHB: READ   Addr=0x8bf39c40  Data=0xxxxxxxxx
[15770000]   PASS - Checker: AHB→APB translation OK

[15806000] ========== AHB Transaction #291 ==========
[15806000] AHB: WRITE  Addr=0x8af6f128  Data=0xddbcadce
[15810000]   APB Slave: Read (MISS)   Addr=0x83673d70  Data=0x3d70c28f [generated]
[15830000]   PASS - Checker: AHB→APB addr OK, APB Read Data=0x3d70c28f

[15846000] ========== AHB Transaction #292 ==========
[15846000] AHB: WRITE  Addr=0x88478e90  Data=0xe0f66624

[15906000] ========== AHB Transaction #293 ==========
[15906000] AHB: WRITE  Addr=0x817cbaa0  Data=0xe39b130c

[15966000] ========== AHB Transaction #294 ==========
[15966000] AHB: READ   Addr=0x83d7b2b4  Data=0xxxxxxxxx

[16026000] ========== AHB Transaction #295 ==========
[16026000] AHB: READ   Addr=0x8bd15f80  Data=0xxxxxxxxx

[16076000] ========== AHB Transaction #296 ==========
[16076000] AHB: READ   Addr=0x828c9ee4  Data=0xxxxxxxxx
[16110000]   APB Slave: Read (MISS)   Addr=0x8bd15f80  Data=0x5f80a07f [generated]

[16126000] ========== AHB Transaction #297 ==========
[16126000] AHB: READ   Addr=0x82c6bdb4  Data=0xxxxxxxxx
[16130000]   PASS - Checker: AHB→APB addr OK, APB Read Data=0x5f80a07f

[16176000] ========== AHB Transaction #298 ==========
[16176000] AHB: READ   Addr=0x8646b4c2  Data=0xxxxxxxxx
[16210000]   APB Slave: Read (MISS)   Addr=0x82c6bdb4  Data=0xbdb4424b [generated]

[16216000] ========== AHB Transaction #299 ==========
[16216000] AHB: READ   Addr=0x80e91abc  Data=0xxxxxxxxx
[16230000]   PASS - Checker: AHB→APB addr OK, APB Read Data=0xbdb4424b

[16256000] ========== AHB Transaction #300 ==========
[16256000] AHB: READ   Addr=0x81cae3c8  Data=0xxxxxxxxx
[16290000]   APB Slave: Read (MISS)   Addr=0x80e91abc  Data=0x1abce543 [generated]

[16306000] ========== AHB Transaction #301 ==========
[16306000] AHB: WRITE  Addr=0x897b3b6c  Data=0xd946c72f
[16310000]   PASS - Checker: AHB→APB addr OK, APB Read Data=0x1abce543

[16346000] ========== AHB Transaction #302 ==========
[16346000] AHB: WRITE  Addr=0x872d038c  Data=0xca46ab15

[16406000] ========== AHB Transaction #303 ==========
[16406000] AHB: READ   Addr=0x8a0f4270  Data=0xxxxxxxxx

[16466000] ========== AHB Transaction #304 ==========
[16466000] AHB: WRITE  Addr=0x877f400c  Data=0x2f41a975

[16506000] ========== AHB Transaction #305 ==========
[16506000] AHB: READ   Addr=0x80e5a764  Data=0xxxxxxxxx

[16566000] ========== AHB Transaction #306 ==========
[16566000] AHB: WRITE  Addr=0x8a40be90  Data=0x78c2c7ac

[16606000] ========== AHB Transaction #307 ==========
[16606000] AHB: WRITE  Addr=0x82313f34  Data=0xb13f8adf

[16666000] ========== AHB Transaction #308 ==========
[16666000] AHB: WRITE  Addr=0x832a2198  Data=0x4af6fee3

[16726000] ========== AHB Transaction #309 ==========
[16726000] AHB: WRITE  Addr=0x8271fc98  Data=0x7164457a

[16786000] ========== AHB Transaction #310 ==========
[16786000] AHB: READ   Addr=0x81c79e5c  Data=0xxxxxxxxx

[16846000] ========== AHB Transaction #311 ==========
[16846000] AHB: READ   Addr=0x84373ab8  Data=0xxxxxxxxx

[16896000] ========== AHB Transaction #312 ==========
[16896000] AHB: READ   Addr=0x87188d90  Data=0xxxxxxxxx
[16930000]   APB Slave: Read (MISS)   Addr=0x84373ab8  Data=0x3ab8c547 [generated]

[16946000] ========== AHB Transaction #313 ==========
[16946000] AHB: WRITE  Addr=0x87c18f40  Data=0x6cd3484
[16950000]   PASS - Checker: AHB→APB addr OK, APB Read Data=0x3ab8c547

[16986000] ========== AHB Transaction #314 ==========
[16986000] AHB: WRITE  Addr=0x807c920e  Data=0x770b7714

[17016000] ========== AHB Transaction #315 ==========
[17016000] AHB: WRITE  Addr=0x87fba774  Data=0x1d8495c8
[17070000]   APB Slave: Stored Write  Addr=0x807c920e  Data=0x770b7714

[17076000] ========== AHB Transaction #316 ==========
[17076000] AHB: READ   Addr=0x8ac44088  Data=0xxxxxxxxx
[17090000]   PASS - Checker: AHB→APB translation OK
[17130000]   APB Slave: Stored Write  Addr=0x87fba774  Data=0x1d8495c8

[17136000] ========== AHB Transaction #317 ==========
[17136000] AHB: WRITE  Addr=0x85b705c4  Data=0x77d673d4
[17150000]   PASS - Checker: AHB→APB translation OK

[17176000] ========== AHB Transaction #318 ==========
[17176000] AHB: WRITE  Addr=0x84bf299c  Data=0x8ab46da7
[17190000]   APB Slave: Read (MISS)   Addr=0x8ac44088  Data=0x4088bf77 [generated]
[17210000]   PASS - Checker: AHB→APB addr OK, APB Read Data=0x4088bf77
[17230000]   APB Slave: Stored Write  Addr=0x85b705c4  Data=0x77d673d4

[17236000] ========== AHB Transaction #319 ==========
[17236000] AHB: READ   Addr=0x8ba6b658  Data=0xxxxxxxxx
[17250000]   PASS - Checker: AHB→APB translation OK
[17290000]   APB Slave: Stored Write  Addr=0x84bf299c  Data=0x8ab46da7

[17296000] ========== AHB Transaction #320 ==========
[17296000] AHB: WRITE  Addr=0x82ffdf84  Data=0x659d02d8
[17310000]   PASS - Checker: AHB→APB translation OK

[17336000] ========== AHB Transaction #321 ==========
[17336000] AHB: READ   Addr=0x867ea9c6  Data=0xxxxxxxxx
[17350000]   APB Slave: Read (MISS)   Addr=0x8ba6b658  Data=0xb65849a7 [generated]
[17370000]   PASS - Checker: AHB→APB addr OK, APB Read Data=0xb65849a7
[17390000]   APB Slave: Stored Write  Addr=0x82ffdf84  Data=0x659d02d8

[17396000] ========== AHB Transaction #322 ==========
[17396000] AHB: WRITE  Addr=0x8347ddb0  Data=0xe57fa9dd
[17410000]   PASS - Checker: AHB→APB translation OK

[17436000] ========== AHB Transaction #323 ==========
[17436000] AHB: READ   Addr=0x8a862df0  Data=0xxxxxxxxx
[17450000]   APB Slave: Read (MISS)   Addr=0x867ea9c6  Data=0xa9c65639 [generated]
[17470000]   PASS - Checker: AHB→APB addr OK, APB Read Data=0xa9c65639
[17490000]   APB Slave: Stored Write  Addr=0x8347ddb0  Data=0xe57fa9dd

[17496000] ========== AHB Transaction #324 ==========
[17496000] AHB: WRITE  Addr=0x84b1b078  Data=0xc216f0be
[17510000]   PASS - Checker: AHB→APB translation OK

[17536000] ========== AHB Transaction #325 ==========
[17536000] AHB: READ   Addr=0x843944bc  Data=0xxxxxxxxx
[17550000]   APB Slave: Read (MISS)   Addr=0x8a862df0  Data=0x2df0d20f [generated]
[17570000]   PASS - Checker: AHB→APB addr OK, APB Read Data=0x2df0d20f
[17590000]   APB Slave: Stored Write  Addr=0x84b1b078  Data=0xc216f0be

[17596000] ========== AHB Transaction #326 ==========
[17596000] AHB: READ   Addr=0x828a855c  Data=0xxxxxxxxx
[17610000]   PASS - Checker: AHB→APB translation OK

[17646000] ========== AHB Transaction #327 ==========
[17646000] AHB: READ   Addr=0x81c27064  Data=0xxxxxxxxx
[17650000]   APB Slave: Read (MISS)   Addr=0x843944bc  Data=0x44bcbb43 [generated]
[17670000]   PASS - Checker: AHB→APB addr OK, APB Read Data=0x44bcbb43

[17696000] ========== AHB Transaction #328 ==========
[17696000] AHB: READ   Addr=0x80939c4a  Data=0xxxxxxxxx
[17730000]   APB Slave: Read (MISS)   Addr=0x81c27064  Data=0x70648f9b [generated]

[17746000] ========== AHB Transaction #329 ==========
[17746000] AHB: WRITE  Addr=0x8ae8b18c  Data=0x28b6fa0f
[17750000]   PASS - Checker: AHB→APB addr OK, APB Read Data=0x70648f9b

[17786000] ========== AHB Transaction #330 ==========
[17786000] AHB: READ   Addr=0x86e7d0dc  Data=0xxxxxxxxx

[17846000] ========== AHB Transaction #331 ==========
[17846000] AHB: WRITE  Addr=0x8009d01e  Data=0xb445a0fe

[17886000] ========== AHB Transaction #332 ==========
[17886000] AHB: WRITE  Addr=0x8251aa14  Data=0xbefd59fd

[17946000] ========== AHB Transaction #333 ==========
[17946000] AHB: WRITE  Addr=0x86faf0f8  Data=0x73a780d8

[18006000] ========== AHB Transaction #334 ==========
[18006000] AHB: WRITE  Addr=0x878a3098  Data=0x6114d9ec

[18066000] ========== AHB Transaction #335 ==========
[18066000] AHB: WRITE  Addr=0x8994a6ac  Data=0x92bdc0e2

[18126000] ========== AHB Transaction #336 ==========
[18126000] AHB: READ   Addr=0x83718680  Data=0xxxxxxxxx

[18186000] ========== AHB Transaction #337 ==========
[18186000] AHB: WRITE  Addr=0x898275b0  Data=0x46858986

[18226000] ========== AHB Transaction #338 ==========
[18226000] AHB: READ   Addr=0x88180420  Data=0xxxxxxxxx

[18286000] ========== AHB Transaction #339 ==========
[18286000] AHB: READ   Addr=0x87980be8  Data=0xxxxxxxxx

[18336000] ========== AHB Transaction #340 ==========
[18336000] AHB: READ   Addr=0x8434a9dc  Data=0xxxxxxxxx
[18370000]   APB Slave: Read (MISS)   Addr=0x87980be8  Data=0xbe8f417 [generated]

[18386000] ========== AHB Transaction #341 ==========
[18386000] AHB: WRITE  Addr=0x8bb9c200  Data=0x345bf47f
[18390000]   PASS - Checker: AHB→APB addr OK, APB Read Data=0xbe8f417

[18426000] ========== AHB Transaction #342 ==========
[18426000] AHB: READ   Addr=0x80bd2ee4  Data=0xxxxxxxxx

[18486000] ========== AHB Transaction #343 ==========
[18486000] AHB: READ   Addr=0x8bc32284  Data=0xxxxxxxxx

[18536000] ========== AHB Transaction #344 ==========
[18536000] AHB: READ   Addr=0x839d25ec  Data=0xxxxxxxxx
[18570000]   APB Slave: Read (MISS)   Addr=0x8bc32284  Data=0x2284dd7b [generated]

[18586000] ========== AHB Transaction #345 ==========
[18586000] AHB: WRITE  Addr=0x877c439c  Data=0x8840c345
[18590000]   PASS - Checker: AHB→APB addr OK, APB Read Data=0x2284dd7b

[18626000] ========== AHB Transaction #346 ==========
[18626000] AHB: READ   Addr=0x8a368e04  Data=0xxxxxxxxx

[18686000] ========== AHB Transaction #347 ==========
[18686000] AHB: READ   Addr=0x894f6538  Data=0xxxxxxxxx

[18736000] ========== AHB Transaction #348 ==========
[18736000] AHB: READ   Addr=0x8105f91c  Data=0xxxxxxxxx
[18770000]   APB Slave: Read (MISS)   Addr=0x894f6538  Data=0x65389ac7 [generated]

[18786000] ========== AHB Transaction #349 ==========
[18786000] AHB: READ   Addr=0x8bd84ef4  Data=0xxxxxxxxx
[18790000]   PASS - Checker: AHB→APB addr OK, APB Read Data=0x65389ac7

[18836000] ========== AHB Transaction #350 ==========
[18836000] AHB: READ   Addr=0x83130f30  Data=0xxxxxxxxx
[18870000]   APB Slave: Read (MISS)   Addr=0x8bd84ef4  Data=0x4ef4b10b [generated]

[18886000] ========== AHB Transaction #351 ==========
[18886000] AHB: WRITE  Addr=0x86edd448  Data=0x812c930b
[18890000]   PASS - Checker: AHB→APB addr OK, APB Read Data=0x4ef4b10b

[18926000] ========== AHB Transaction #352 ==========
[18926000] AHB: READ   Addr=0x850590b0  Data=0xxxxxxxxx

[18986000] ========== AHB Transaction #353 ==========
[18986000] AHB: READ   Addr=0x88167574  Data=0xxxxxxxxx

[19036000] ========== AHB Transaction #354 ==========
[19036000] AHB: READ   Addr=0x84939f62  Data=0xxxxxxxxx
[19070000]   APB Slave: Read (MISS)   Addr=0x88167574  Data=0x75748a8b [generated]

[19086000] ========== AHB Transaction #355 ==========
[19086000] AHB: READ   Addr=0x88f21114  Data=0xxxxxxxxx
[19090000]   PASS - Checker: AHB→APB addr OK, APB Read Data=0x75748a8b

[19136000] ========== AHB Transaction #356 ==========
[19136000] AHB: WRITE  Addr=0x884b5796  Data=0x54a1a25c
[19170000]   APB Slave: Read (MISS)   Addr=0x88f21114  Data=0x1114eeeb [generated]

[19176000] ========== AHB Transaction #357 ==========
[19176000] AHB: WRITE  Addr=0x853dc982  Data=0xea135b5
[19190000]   PASS - Checker: AHB→APB addr OK, APB Read Data=0x1114eeeb
[19230000]   APB Slave: Stored Write  Addr=0x884b5796  Data=0x54a1a25c

[19236000] ========== AHB Transaction #358 ==========
[19236000] AHB: WRITE  Addr=0x8b7a0908  Data=0x616986c8
[19250000]   PASS - Checker: AHB→APB translation OK
[19290000]   APB Slave: Stored Write  Addr=0x853dc982  Data=0xea135b5

[19296000] ========== AHB Transaction #359 ==========
[19296000] AHB: READ   Addr=0x85aa31d0  Data=0xxxxxxxxx
[19310000]   PASS - Checker: AHB→APB translation OK
[19350000]   APB Slave: Stored Write  Addr=0x8b7a0908  Data=0x616986c8

[19356000] ========== AHB Transaction #360 ==========
[19356000] AHB: WRITE  Addr=0x8356f8a6  Data=0x22d9dab
[19370000]   PASS - Checker: AHB→APB translation OK

[19396000] ========== AHB Transaction #361 ==========
[19396000] AHB: WRITE  Addr=0x8356d412  Data=0x75397aca
[19410000]   APB Slave: Read (MISS)   Addr=0x85aa31d0  Data=0x31d0ce2f [generated]
[19430000]   PASS - Checker: AHB→APB addr OK, APB Read Data=0x31d0ce2f
[19450000]   APB Slave: Stored Write  Addr=0x8356f8a6  Data=0x22d9dab

[19456000] ========== AHB Transaction #362 ==========
[19456000] AHB: READ   Addr=0x85a63804  Data=0xxxxxxxxx
[19470000]   PASS - Checker: AHB→APB translation OK
[19510000]   APB Slave: Stored Write  Addr=0x8356d412  Data=0x75397aca

[19516000] ========== AHB Transaction #363 ==========
[19516000] AHB: READ   Addr=0x881be558  Data=0xxxxxxxxx
[19530000]   PASS - Checker: AHB→APB translation OK

[19566000] ========== AHB Transaction #364 ==========
[19566000] AHB: READ   Addr=0x87baeb00  Data=0xxxxxxxxx
[19570000]   APB Slave: Read (MISS)   Addr=0x85a63804  Data=0x3804c7fb [generated]
[19590000]   PASS - Checker: AHB→APB addr OK, APB Read Data=0x3804c7fb

[19616000] ========== AHB Transaction #365 ==========
[19616000] AHB: READ   Addr=0x87a2e818  Data=0xxxxxxxxx
[19650000]   APB Slave: Read (MISS)   Addr=0x87baeb00  Data=0xeb0014ff [generated]

[19666000] ========== AHB Transaction #366 ==========
[19666000] AHB: WRITE  Addr=0x80b7eee4  Data=0x5530d39
[19670000]   PASS - Checker: AHB→APB addr OK, APB Read Data=0xeb0014ff

[19706000] ========== AHB Transaction #367 ==========
[19706000] AHB: WRITE  Addr=0x8516de70  Data=0x91da0d46

[19766000] ========== AHB Transaction #368 ==========
[19766000] AHB: WRITE  Addr=0x800010a2  Data=0xf0769bc5

[19826000] ========== AHB Transaction #369 ==========
[19826000] AHB: READ   Addr=0x811553a8  Data=0xxxxxxxxx

[19866000] ========== AHB Transaction #370 ==========
[19866000] AHB: READ   Addr=0x80c62b70  Data=0xxxxxxxxx

[19916000] ========== AHB Transaction #371 ==========
[19916000] AHB: READ   Addr=0x851bc2e8  Data=0xxxxxxxxx
[19950000]   APB Slave: Read (MISS)   Addr=0x80c62b70  Data=0x2b70d48f [generated]

[19966000] ========== AHB Transaction #372 ==========
[19966000] AHB: READ   Addr=0x89ba0c82  Data=0xxxxxxxxx
[19970000]   PASS - Checker: AHB→APB addr OK, APB Read Data=0x2b70d48f

[20016000] ========== AHB Transaction #373 ==========
[20016000] AHB: WRITE  Addr=0x88a39378  Data=0x1f9bd036
[20050000]   APB Slave: Read (MISS)   Addr=0x89ba0c82  Data=0xc82f37d [generated]

[20056000] ========== AHB Transaction #374 ==========
[20056000] AHB: WRITE  Addr=0x88a71b90  Data=0x8ddc03a9
[20070000]   PASS - Checker: AHB→APB addr OK, APB Read Data=0xc82f37d
[20110000]   APB Slave: Stored Write  Addr=0x88a39378  Data=0x1f9bd036

[20116000] ========== AHB Transaction #375 ==========
[20116000] AHB: READ   Addr=0x85d31554  Data=0xxxxxxxxx
[20130000]   PASS - Checker: AHB→APB translation OK
[20170000]   APB Slave: Stored Write  Addr=0x88a71b90  Data=0x8ddc03a9

[20176000] ========== AHB Transaction #376 ==========
[20176000] AHB: READ   Addr=0x897d88b8  Data=0xxxxxxxxx
[20190000]   PASS - Checker: AHB→APB translation OK

[20226000] ========== AHB Transaction #377 ==========
[20226000] AHB: WRITE  Addr=0x89fc3a72  Data=0x521d6999
[20230000]   APB Slave: Read (MISS)   Addr=0x85d31554  Data=0x1554eaab [generated]
[20250000]   PASS - Checker: AHB→APB addr OK, APB Read Data=0x1554eaab

[20266000] ========== AHB Transaction #378 ==========
[20266000] AHB: READ   Addr=0x826229f4  Data=0xxxxxxxxx

[20306000] ========== AHB Transaction #379 ==========
[20306000] AHB: READ   Addr=0x81002562  Data=0xxxxxxxxx

[20356000] ========== AHB Transaction #380 ==========
[20356000] AHB: READ   Addr=0x88baa248  Data=0xxxxxxxxx
[20390000]   APB Slave: Read (MISS)   Addr=0x81002562  Data=0x2562da9d [generated]

[20406000] ========== AHB Transaction #381 ==========
[20406000] AHB: WRITE  Addr=0x8a52ef54  Data=0xd12f69b3
[20410000]   PASS - Checker: AHB→APB addr OK, APB Read Data=0x2562da9d

[20446000] ========== AHB Transaction #382 ==========
[20446000] AHB: WRITE  Addr=0x82865630  Data=0xda53ef70

[20476000] ========== AHB Transaction #383 ==========
[20476000] AHB: WRITE  Addr=0x806077f4  Data=0xa0998387
[20530000]   APB Slave: Stored Write  Addr=0x82865630  Data=0xda53ef70

[20536000] ========== AHB Transaction #384 ==========
[20536000] AHB: WRITE  Addr=0x862afd34  Data=0xc9938f02
[20550000]   PASS - Checker: AHB→APB translation OK
[20590000]   APB Slave: Stored Write  Addr=0x806077f4  Data=0xa0998387

[20596000] ========== AHB Transaction #385 ==========
[20596000] AHB: READ   Addr=0x87c6018c  Data=0xxxxxxxxx
[20610000]   PASS - Checker: AHB→APB translation OK
[20650000]   APB Slave: Stored Write  Addr=0x862afd34  Data=0xc9938f02

[20656000] ========== AHB Transaction #386 ==========
[20656000] AHB: WRITE  Addr=0x8b2bc304  Data=0xfb3fef1f
[20670000]   PASS - Checker: AHB→APB translation OK

[20696000] ========== AHB Transaction #387 ==========
[20696000] AHB: WRITE  Addr=0x84d9f808  Data=0xa73099a0
[20710000]   APB Slave: Read (MISS)   Addr=0x87c6018c  Data=0x18cfe73 [generated]
[20730000]   PASS - Checker: AHB→APB addr OK, APB Read Data=0x18cfe73
[20750000]   APB Slave: Stored Write  Addr=0x8b2bc304  Data=0xfb3fef1f

[20756000] ========== AHB Transaction #388 ==========
[20756000] AHB: READ   Addr=0x88686440  Data=0xxxxxxxxx
[20770000]   PASS - Checker: AHB→APB translation OK
[20810000]   APB Slave: Stored Write  Addr=0x84d9f808  Data=0xa73099a0

[20816000] ========== AHB Transaction #389 ==========
[20816000] AHB: WRITE  Addr=0x866b9a94  Data=0xec00dc26
[20830000]   PASS - Checker: AHB→APB translation OK

[20856000] ========== AHB Transaction #390 ==========
[20856000] AHB: READ   Addr=0x850dd684  Data=0xxxxxxxxx
[20870000]   APB Slave: Read (MISS)   Addr=0x88686440  Data=0x64409bbf [generated]
[20890000]   PASS - Checker: AHB→APB addr OK, APB Read Data=0x64409bbf
[20910000]   APB Slave: Stored Write  Addr=0x866b9a94  Data=0xec00dc26

[20916000] ========== AHB Transaction #391 ==========
[20916000] AHB: READ   Addr=0x8599ba3c  Data=0xxxxxxxxx
[20930000]   PASS - Checker: AHB→APB translation OK

[20966000] ========== AHB Transaction #392 ==========
[20966000] AHB: READ   Addr=0x87f54038  Data=0xxxxxxxxx
[20970000]   APB Slave: Read (MISS)   Addr=0x850dd684  Data=0xd684297b [generated]
[20990000]   PASS - Checker: AHB→APB addr OK, APB Read Data=0xd684297b

[21016000] ========== AHB Transaction #393 ==========
[21016000] AHB: WRITE  Addr=0x870dd54c  Data=0xe0578f
[21050000]   APB Slave: Read (MISS)   Addr=0x87f54038  Data=0x4038bfc7 [generated]

[21056000] ========== AHB Transaction #394 ==========
[21056000] AHB: READ   Addr=0x86f941c8  Data=0xxxxxxxxx
[21070000]   PASS - Checker: AHB→APB addr OK, APB Read Data=0x4038bfc7
[21110000]   APB Slave: Stored Write  Addr=0x870dd54c  Data=0xe0578f

[21116000] ========== AHB Transaction #395 ==========
[21116000] AHB: READ   Addr=0x84f71d38  Data=0xxxxxxxxx
[21130000]   PASS - Checker: AHB→APB translation OK

[21156000] ========== AHB Transaction #396 ==========
[21156000] AHB: WRITE  Addr=0x83e29c7c  Data=0x38945108
[21170000]   APB Slave: Read (MISS)   Addr=0x86f941c8  Data=0x41c8be37 [generated]

[21186000] ========== AHB Transaction #397 ==========
[21186000] AHB: WRITE  Addr=0x8773bec4  Data=0xdacf4073
[21190000]   PASS - Checker: AHB→APB addr OK, APB Read Data=0x41c8be37

[21246000] ========== AHB Transaction #398 ==========
[21246000] AHB: WRITE  Addr=0x8b78681c  Data=0x81162d59

[21306000] ========== AHB Transaction #399 ==========
[21306000] AHB: WRITE  Addr=0x8b1002aa  Data=0x5afc4d2f

[21366000] ========== AHB Transaction #400 ==========
[21366000] AHB: WRITE  Addr=0x89ada0f4  Data=0x3dcd205c

[21426000] ========== AHB Transaction #401 ==========
[21426000] AHB: READ   Addr=0x8aad75d4  Data=0xxxxxxxxx

[21486000] ========== AHB Transaction #402 ==========
[21486000] AHB: READ   Addr=0x8b22e140  Data=0xxxxxxxxx

[21536000] ========== AHB Transaction #403 ==========
[21536000] AHB: READ   Addr=0x856f56d8  Data=0xxxxxxxxx
[21570000]   APB Slave: Read (MISS)   Addr=0x8b22e140  Data=0xe1401ebf [generated]

[21586000] ========== AHB Transaction #404 ==========
[21586000] AHB: READ   Addr=0x810ce6f8  Data=0xxxxxxxxx
[21590000]   PASS - Checker: AHB→APB addr OK, APB Read Data=0xe1401ebf

[21636000] ========== AHB Transaction #405 ==========
[21636000] AHB: WRITE  Addr=0x86a29734  Data=0x38619b13
[21670000]   APB Slave: Read (MISS)   Addr=0x810ce6f8  Data=0xe6f81907 [generated]

[21676000] ========== AHB Transaction #406 ==========
[21676000] AHB: WRITE  Addr=0x8560a458  Data=0xd2e40d17
[21690000]   PASS - Checker: AHB→APB addr OK, APB Read Data=0xe6f81907
[21730000]   APB Slave: Stored Write  Addr=0x86a29734  Data=0x38619b13

[21736000] ========== AHB Transaction #407 ==========
[21736000] AHB: WRITE  Addr=0x88526620  Data=0x9509300a
[21750000]   PASS - Checker: AHB→APB translation OK
[21790000]   APB Slave: Stored Write  Addr=0x8560a458  Data=0xd2e40d17

[21796000] ========== AHB Transaction #408 ==========
[21796000] AHB: READ   Addr=0x811f38d4  Data=0xxxxxxxxx
[21810000]   PASS - Checker: AHB→APB translation OK
[21850000]   APB Slave: Stored Write  Addr=0x88526620  Data=0x9509300a

[21856000] ========== AHB Transaction #409 ==========
[21856000] AHB: READ   Addr=0x88540d50  Data=0xxxxxxxxx
[21870000]   PASS - Checker: AHB→APB translation OK

[21896000] ========== AHB Transaction #410 ==========
[21896000] AHB: WRITE  Addr=0x80fbc418  Data=0x1c58699d
[21910000]   APB Slave: Read (MISS)   Addr=0x811f38d4  Data=0x38d4c72b [generated]

[21926000] ========== AHB Transaction #411 ==========
[21926000] AHB: WRITE  Addr=0x8a508920  Data=0x5da63367
[21930000]   PASS - Checker: AHB→APB addr OK, APB Read Data=0x38d4c72b

[21986000] ========== AHB Transaction #412 ==========
[21986000] AHB: WRITE  Addr=0x8509aa74  Data=0x19591d55

[22046000] ========== AHB Transaction #413 ==========
[22046000] AHB: READ   Addr=0x89de33e4  Data=0xxxxxxxxx

[22106000] ========== AHB Transaction #414 ==========
[22106000] AHB: READ   Addr=0x8a6ad1dc  Data=0xxxxxxxxx

[22156000] ========== AHB Transaction #415 ==========
[22156000] AHB: READ   Addr=0x830df0dc  Data=0xxxxxxxxx
[22190000]   APB Slave: Read (MISS)   Addr=0x8a6ad1dc  Data=0xd1dc2e23 [generated]

[22206000] ========== AHB Transaction #416 ==========
[22206000] AHB: READ   Addr=0x80861450  Data=0xxxxxxxxx
[22210000]   PASS - Checker: AHB→APB addr OK, APB Read Data=0xd1dc2e23

[22256000] ========== AHB Transaction #417 ==========
[22256000] AHB: READ   Addr=0x8026bb48  Data=0xxxxxxxxx
[22290000]   APB Slave: Read (MISS)   Addr=0x80861450  Data=0x1450ebaf [generated]

[22306000] ========== AHB Transaction #418 ==========
[22306000] AHB: WRITE  Addr=0x83a91600  Data=0x5b7e3281
[22310000]   PASS - Checker: AHB→APB addr OK, APB Read Data=0x1450ebaf

[22346000] ========== AHB Transaction #419 ==========
[22346000] AHB: READ   Addr=0x810166f8  Data=0xxxxxxxxx

[22406000] ========== AHB Transaction #420 ==========
[22406000] AHB: WRITE  Addr=0x8b00faa0  Data=0x57633edd

[22436000] ========== AHB Transaction #421 ==========
[22436000] AHB: WRITE  Addr=0x83fb7ec2  Data=0xaf5e3c1c
[22490000]   APB Slave: Stored Write  Addr=0x8b00faa0  Data=0x57633edd

[22496000] ========== AHB Transaction #422 ==========
[22496000] AHB: WRITE  Addr=0x88825000  Data=0xa9a2437b
[22510000]   PASS - Checker: AHB→APB translation OK
[22550000]   APB Slave: Stored Write  Addr=0x83fb7ec2  Data=0xaf5e3c1c

[22556000] ========== AHB Transaction #423 ==========
[22556000] AHB: READ   Addr=0x87593280  Data=0xxxxxxxxx
[22570000]   PASS - Checker: AHB→APB translation OK

[22596000] ========== AHB Transaction #424 ==========
[22596000] AHB: READ   Addr=0x84bda9d4  Data=0xxxxxxxxx
[22630000]   APB Slave: Read (MISS)   Addr=0x87593280  Data=0x3280cd7f [generated]

[22646000] ========== AHB Transaction #425 ==========
[22646000] AHB: WRITE  Addr=0x87d4f384  Data=0xe96defd9
[22650000]   PASS - Checker: AHB→APB addr OK, APB Read Data=0x3280cd7f

[22686000] ========== AHB Transaction #426 ==========
[22686000] AHB: WRITE  Addr=0x82b6e744  Data=0x2f4052cb

[22746000] ========== AHB Transaction #427 ==========
[22746000] AHB: READ   Addr=0x87d52af2  Data=0xxxxxxxxx

[22806000] ========== AHB Transaction #428 ==========
[22806000] AHB: READ   Addr=0x828e41ac  Data=0xxxxxxxxx

[22856000] ========== AHB Transaction #429 ==========
[22856000] AHB: READ   Addr=0x8a004514  Data=0xxxxxxxxx
[22890000]   APB Slave: Read (MISS)   Addr=0x828e41ac  Data=0x41acbe53 [generated]

[22906000] ========== AHB Transaction #430 ==========
[22906000] AHB: WRITE  Addr=0x8899bfac  Data=0x34726444
[22910000]   PASS - Checker: AHB→APB addr OK, APB Read Data=0x41acbe53

[22946000] ========== AHB Transaction #431 ==========
[22946000] AHB: WRITE  Addr=0x859e74d0  Data=0x73da7f6f

[23006000] ========== AHB Transaction #432 ==========
[23006000] AHB: READ   Addr=0x8b5be17c  Data=0xxxxxxxxx

[23066000] ========== AHB Transaction #433 ==========
[23066000] AHB: READ   Addr=0x824efad0  Data=0xxxxxxxxx

[23116000] ========== AHB Transaction #434 ==========
[23116000] AHB: WRITE  Addr=0x8184c460  Data=0x37a6de07
[23150000]   APB Slave: Read (MISS)   Addr=0x824efad0  Data=0xfad0052f [generated]

[23156000] ========== AHB Transaction #435 ==========
[23156000] AHB: WRITE  Addr=0x804079f4  Data=0x2c1c2898
[23170000]   PASS - Checker: AHB→APB addr OK, APB Read Data=0xfad0052f
[23210000]   APB Slave: Stored Write  Addr=0x8184c460  Data=0x37a6de07

[23216000] ========== AHB Transaction #436 ==========
[23216000] AHB: WRITE  Addr=0x85c0f8e6  Data=0x12714195
[23230000]   PASS - Checker: AHB→APB translation OK
[23270000]   APB Slave: Stored Write  Addr=0x804079f4  Data=0x2c1c2898

[23276000] ========== AHB Transaction #437 ==========
[23276000] AHB: WRITE  Addr=0x881d3802  Data=0x84bfcd0e
[23290000]   PASS - Checker: AHB→APB translation OK
[23330000]   APB Slave: Stored Write  Addr=0x85c0f8e6  Data=0x12714195

[23336000] ========== AHB Transaction #438 ==========
[23336000] AHB: READ   Addr=0x87c67078  Data=0xxxxxxxxx
[23350000]   PASS - Checker: AHB→APB translation OK
[23390000]   APB Slave: Stored Write  Addr=0x881d3802  Data=0x84bfcd0e

[23396000] ========== AHB Transaction #439 ==========
[23396000] AHB: WRITE  Addr=0x8264abc4  Data=0x906dc29d
[23410000]   PASS - Checker: AHB→APB translation OK

[23436000] ========== AHB Transaction #440 ==========
[23436000] AHB: WRITE  Addr=0x89dfbe36  Data=0x4df165af
[23450000]   APB Slave: Read (MISS)   Addr=0x87c67078  Data=0x70788f87 [generated]
[23470000]   PASS - Checker: AHB→APB addr OK, APB Read Data=0x70788f87
[23490000]   APB Slave: Stored Write  Addr=0x8264abc4  Data=0x906dc29d

[23496000] ========== AHB Transaction #441 ==========
[23496000] AHB: WRITE  Addr=0x84cee7ec  Data=0xde925294
[23510000]   PASS - Checker: AHB→APB translation OK
[23550000]   APB Slave: Stored Write  Addr=0x89dfbe36  Data=0x4df165af

[23556000] ========== AHB Transaction #442 ==========
[23556000] AHB: READ   Addr=0x81c6391c  Data=0xxxxxxxxx
[23570000]   PASS - Checker: AHB→APB translation OK
[23610000]   APB Slave: Stored Write  Addr=0x84cee7ec  Data=0xde925294

[23616000] ========== AHB Transaction #443 ==========
[23616000] AHB: WRITE  Addr=0x817c35fa  Data=0x952fa2c
[23630000]   PASS - Checker: AHB→APB translation OK

[23656000] ========== AHB Transaction #444 ==========
[23656000] AHB: READ   Addr=0x80bc7c7a  Data=0xxxxxxxxx
[23670000]   APB Slave: Read (MISS)   Addr=0x81c6391c  Data=0x391cc6e3 [generated]
[23690000]   PASS - Checker: AHB→APB addr OK, APB Read Data=0x391cc6e3
[23710000]   APB Slave: Stored Write  Addr=0x817c35fa  Data=0x952fa2c

[23716000] ========== AHB Transaction #445 ==========
[23716000] AHB: READ   Addr=0x8590722c  Data=0xxxxxxxxx
[23730000]   PASS - Checker: AHB→APB translation OK

[23766000] ========== AHB Transaction #446 ==========
[23766000] AHB: READ   Addr=0x80e4ce08  Data=0xxxxxxxxx
[23770000]   APB Slave: Read (MISS)   Addr=0x80bc7c7a  Data=0x7c7a8385 [generated]
[23790000]   PASS - Checker: AHB→APB addr OK, APB Read Data=0x7c7a8385

[23816000] ========== AHB Transaction #447 ==========
[23816000] AHB: READ   Addr=0x841c9c78  Data=0xxxxxxxxx
[23850000]   APB Slave: Read (MISS)   Addr=0x80e4ce08  Data=0xce0831f7 [generated]

[23866000] ========== AHB Transaction #448 ==========
[23866000] AHB: READ   Addr=0x88c2f6ec  Data=0xxxxxxxxx
[23870000]   PASS - Checker: AHB→APB addr OK, APB Read Data=0xce0831f7

[23916000] ========== AHB Transaction #449 ==========
[23916000] AHB: READ   Addr=0x826a0a68  Data=0xxxxxxxxx
[23950000]   APB Slave: Read (MISS)   Addr=0x88c2f6ec  Data=0xf6ec0913 [generated]

[23966000] ========== AHB Transaction #450 ==========
[23966000] AHB: WRITE  Addr=0x884653cc  Data=0x3f3c56a5
[23970000]   PASS - Checker: AHB→APB addr OK, APB Read Data=0xf6ec0913

[24006000] ========== AHB Transaction #451 ==========
[24006000] AHB: READ   Addr=0x84cb20f4  Data=0xxxxxxxxx

[24066000] ========== AHB Transaction #452 ==========
[24066000] AHB: READ   Addr=0x8b28d192  Data=0xxxxxxxxx

[24116000] ========== AHB Transaction #453 ==========
[24116000] AHB: WRITE  Addr=0x83da8f7c  Data=0x54b1b548
[24150000]   APB Slave: Read (MISS)   Addr=0x8b28d192  Data=0xd1922e6d [generated]

[24156000] ========== AHB Transaction #454 ==========
[24156000] AHB: READ   Addr=0x841bebf0  Data=0xxxxxxxxx
[24170000]   PASS - Checker: AHB→APB addr OK, APB Read Data=0xd1922e6d
[24210000]   APB Slave: Stored Write  Addr=0x83da8f7c  Data=0x54b1b548

[24216000] ========== AHB Transaction #455 ==========
[24216000] AHB: WRITE  Addr=0x83131e1c  Data=0x8b7f76ee
[24230000]   PASS - Checker: AHB→APB translation OK

[24256000] ========== AHB Transaction #456 ==========
[24256000] AHB: READ   Addr=0x86700524  Data=0xxxxxxxxx
[24270000]   APB Slave: Read (MISS)   Addr=0x841bebf0  Data=0xebf0140f [generated]
[24290000]   PASS - Checker: AHB→APB addr OK, APB Read Data=0xebf0140f
[24310000]   APB Slave: Stored Write  Addr=0x83131e1c  Data=0x8b7f76ee

[24316000] ========== AHB Transaction #457 ==========
[24316000] AHB: READ   Addr=0x80773d5e  Data=0xxxxxxxxx
[24330000]   PASS - Checker: AHB→APB translation OK

[24366000] ========== AHB Transaction #458 ==========
[24366000] AHB: WRITE  Addr=0x88323a5c  Data=0xbd6cb294
[24370000]   APB Slave: Read (MISS)   Addr=0x86700524  Data=0x524fadb [generated]
[24390000]   PASS - Checker: AHB→APB addr OK, APB Read Data=0x524fadb

[24406000] ========== AHB Transaction #459 ==========
[24406000] AHB: WRITE  Addr=0x84297e70  Data=0xc29b11b3

[24466000] ========== AHB Transaction #460 ==========
[24466000] AHB: READ   Addr=0x8142c3bc  Data=0xxxxxxxxx

[24526000] ========== AHB Transaction #461 ==========
[24526000] AHB: READ   Addr=0x87ac0172  Data=0xxxxxxxxx

[24566000] ========== AHB Transaction #462 ==========
[24566000] AHB: READ   Addr=0x8b9cecf0  Data=0xxxxxxxxx

[24606000] ========== AHB Transaction #463 ==========
[24606000] AHB: WRITE  Addr=0x825dac00  Data=0xf49a4baf

[24646000] ========== AHB Transaction #464 ==========
[24646000] AHB: READ   Addr=0x836ac860  Data=0xxxxxxxxx

[24706000] ========== AHB Transaction #465 ==========
[24706000] AHB: WRITE  Addr=0x8837ce7c  Data=0xc47dd1c4

[24746000] ========== AHB Transaction #466 ==========
[24746000] AHB: READ   Addr=0x816e61c0  Data=0xxxxxxxxx

[24806000] ========== AHB Transaction #467 ==========
[24806000] AHB: WRITE  Addr=0x825348e0  Data=0xdf1c7a22

[24846000] ========== AHB Transaction #468 ==========
[24846000] AHB: WRITE  Addr=0x8800f4cc  Data=0xd5e655a6

[24906000] ========== AHB Transaction #469 ==========
[24906000] AHB: READ   Addr=0x8312ece6  Data=0xxxxxxxxx

[24946000] ========== AHB Transaction #470 ==========
[24946000] AHB: READ   Addr=0x84118628  Data=0xxxxxxxxx

[24996000] ========== AHB Transaction #471 ==========
[24996000] AHB: WRITE  Addr=0x892bb166  Data=0x7843ca40
[25030000]   APB Slave: Read (MISS)   Addr=0x84118628  Data=0x862879d7 [generated]

[25036000] ========== AHB Transaction #472 ==========
[25036000] AHB: WRITE  Addr=0x839e8f1c  Data=0x157cd6a3
[25050000]   PASS - Checker: AHB→APB addr OK, APB Read Data=0x862879d7
[25090000]   APB Slave: Stored Write  Addr=0x892bb166  Data=0x7843ca40

[25096000] ========== AHB Transaction #473 ==========
[25096000] AHB: READ   Addr=0x8b18423c  Data=0xxxxxxxxx
[25110000]   PASS - Checker: AHB→APB translation OK
[25150000]   APB Slave: Stored Write  Addr=0x839e8f1c  Data=0x157cd6a3

[25156000] ========== AHB Transaction #474 ==========
[25156000] AHB: WRITE  Addr=0x817ad44c  Data=0x63e20e77
[25170000]   PASS - Checker: AHB→APB translation OK

[25186000] ========== AHB Transaction #475 ==========
[25186000] AHB: WRITE  Addr=0x87ffa7cc  Data=0x6c51bbc0

[25246000] ========== AHB Transaction #476 ==========
[25246000] AHB: WRITE  Addr=0x864c102e  Data=0xa411c10

[25306000] ========== AHB Transaction #477 ==========
[25306000] AHB: WRITE  Addr=0x8037183c  Data=0xb4234a

[25366000] ========== AHB Transaction #478 ==========
[25366000] AHB: WRITE  Addr=0x8aee4eec  Data=0x7ab4a601

[25426000] ========== AHB Transaction #479 ==========
[25426000] AHB: WRITE  Addr=0x80aaf8be  Data=0xc351b7b1

[25486000] ========== AHB Transaction #480 ==========
[25486000] AHB: READ   Addr=0x81a84228  Data=0xxxxxxxxx

[25526000] ========== AHB Transaction #481 ==========
[25526000] AHB: WRITE  Addr=0x8156cd6a  Data=0x3e068e2c

[25566000] ========== AHB Transaction #482 ==========
[25566000] AHB: READ   Addr=0x85944e16  Data=0xxxxxxxxx

[25626000] ========== AHB Transaction #483 ==========
[25626000] AHB: READ   Addr=0x816e934a  Data=0xxxxxxxxx

[25676000] ========== AHB Transaction #484 ==========
[25676000] AHB: WRITE  Addr=0x862ec976  Data=0xc2b63f2e
[25710000]   APB Slave: Read (MISS)   Addr=0x816e934a  Data=0x934a6cb5 [generated]

[25716000] ========== AHB Transaction #485 ==========
[25716000] AHB: WRITE  Addr=0x816d1c6e  Data=0x2d2f2e61
[25730000]   PASS - Checker: AHB→APB addr OK, APB Read Data=0x934a6cb5
[25770000]   APB Slave: Stored Write  Addr=0x862ec976  Data=0xc2b63f2e

[25776000] ========== AHB Transaction #486 ==========
[25776000] AHB: WRITE  Addr=0x8a5a0ef8  Data=0x501dc19e
[25790000]   PASS - Checker: AHB→APB translation OK
[25830000]   APB Slave: Stored Write  Addr=0x816d1c6e  Data=0x2d2f2e61

[25836000] ========== AHB Transaction #487 ==========
[25836000] AHB: READ   Addr=0x849402a0  Data=0xxxxxxxxx
[25850000]   PASS - Checker: AHB→APB translation OK
[25890000]   APB Slave: Stored Write  Addr=0x8a5a0ef8  Data=0x501dc19e

[25896000] ========== AHB Transaction #488 ==========
[25896000] AHB: WRITE  Addr=0x894a13c2  Data=0x272f9b02
[25910000]   PASS - Checker: AHB→APB translation OK

[25936000] ========== AHB Transaction #489 ==========
[25936000] AHB: READ   Addr=0x88ecdb5c  Data=0xxxxxxxxx
[25950000]   APB Slave: Read (MISS)   Addr=0x849402a0  Data=0x2a0fd5f [generated]
[25970000]   PASS - Checker: AHB→APB addr OK, APB Read Data=0x2a0fd5f

[25976000] ========== AHB Transaction #490 ==========
[25976000] AHB: WRITE  Addr=0x8449b064  Data=0x140385d9
[26010000]   APB Slave: Read (MISS)   Addr=0x88ecdb5c  Data=0xdb5c24a3 [generated]

[26016000] ========== AHB Transaction #491 ==========
[26016000] AHB: READ   Addr=0x8ba67be4  Data=0xxxxxxxxx
[26030000]   PASS - Checker: AHB→APB addr OK, APB Read Data=0xdb5c24a3
[26070000]   APB Slave: Stored Write  Addr=0x8449b064  Data=0x140385d9

[26076000] ========== AHB Transaction #492 ==========
[26076000] AHB: WRITE  Addr=0x83190184  Data=0x6bcd4a9
[26090000]   PASS - Checker: AHB→APB translation OK

[26116000] ========== AHB Transaction #493 ==========
[26116000] AHB: WRITE  Addr=0x8727765a  Data=0x72ffda1
[26130000]   APB Slave: Read (MISS)   Addr=0x8ba67be4  Data=0x7be4841b [generated]
[26150000]   PASS - Checker: AHB→APB addr OK, APB Read Data=0x7be4841b
[26170000]   APB Slave: Stored Write  Addr=0x83190184  Data=0x6bcd4a9

[26176000] ========== AHB Transaction #494 ==========
[26176000] AHB: READ   Addr=0x895f2598  Data=0xxxxxxxxx
[26190000]   PASS - Checker: AHB→APB translation OK
[26230000]   APB Slave: Stored Write  Addr=0x8727765a  Data=0x72ffda1

[26236000] ========== AHB Transaction #495 ==========
[26236000] AHB: WRITE  Addr=0x845d6c7c  Data=0xeb3f40d1
[26250000]   PASS - Checker: AHB→APB translation OK

[26276000] ========== AHB Transaction #496 ==========
[26276000] AHB: WRITE  Addr=0x8bb81e18  Data=0x978ea942
[26290000]   APB Slave: Read (MISS)   Addr=0x895f2598  Data=0x2598da67 [generated]
[26310000]   PASS - Checker: AHB→APB addr OK, APB Read Data=0x2598da67
[26330000]   APB Slave: Stored Write  Addr=0x845d6c7c  Data=0xeb3f40d1

[26336000] ========== AHB Transaction #497 ==========
[26336000] AHB: WRITE  Addr=0x815e2674  Data=0xe2c43218
[26350000]   PASS - Checker: AHB→APB translation OK
[26390000]   APB Slave: Stored Write  Addr=0x8bb81e18  Data=0x978ea942

[26396000] ========== AHB Transaction #498 ==========
[26396000] AHB: READ   Addr=0x83ed30b6  Data=0xxxxxxxxx
[26410000]   PASS - Checker: AHB→APB translation OK
[26450000]   APB Slave: Stored Write  Addr=0x815e2674  Data=0xe2c43218

[26456000] ========== AHB Transaction #499 ==========
[26456000] AHB: WRITE  Addr=0x86e6b3f4  Data=0x21b7de9f
[26470000]   PASS - Checker: AHB→APB translation OK

[26496000] ========== AHB Transaction #500 ==========
[26496000] AHB: READ   Addr=0x8754cf74  Data=0xxxxxxxxx
[26510000]   APB Slave: Read (MISS)   Addr=0x83ed30b6  Data=0x30b6cf49 [generated]
[26530000]   PASS - Checker: AHB→APB addr OK, APB Read Data=0x30b6cf49
[26550000]   APB Slave: Stored Write  Addr=0x86e6b3f4  Data=0x21b7de9f

[26556000] ========== AHB Transaction #501 ==========
[26556000] AHB: READ   Addr=0x8adb8d78  Data=0xxxxxxxxx
[26570000]   PASS - Checker: AHB→APB translation OK

[26606000] ========== AHB Transaction #502 ==========
[26606000] AHB: READ   Addr=0x81d1735a  Data=0xxxxxxxxx
[26610000]   APB Slave: Read (MISS)   Addr=0x8754cf74  Data=0xcf74308b [generated]
[26630000]   PASS - Checker: AHB→APB addr OK, APB Read Data=0xcf74308b

[26656000] ========== AHB Transaction #503 ==========
[26656000] AHB: READ   Addr=0x87a39906  Data=0xxxxxxxxx
[26690000]   APB Slave: Read (MISS)   Addr=0x81d1735a  Data=0x735a8ca5 [generated]

[26706000] ========== AHB Transaction #504 ==========
[26706000] AHB: WRITE  Addr=0x87f6b550  Data=0x9b5b552f
[26710000]   PASS - Checker: AHB→APB addr OK, APB Read Data=0x735a8ca5

[26746000] ========== AHB Transaction #505 ==========
[26746000] AHB: WRITE  Addr=0x8708d592  Data=0x396c48b3

[26806000] ========== AHB Transaction #506 ==========
[26806000] AHB: WRITE  Addr=0x84674ef4  Data=0x9fc111f5

[26866000] ========== AHB Transaction #507 ==========
[26866000] AHB: READ   Addr=0x81861418  Data=0xxxxxxxxx

[26926000] ========== AHB Transaction #508 ==========
[26926000] AHB: READ   Addr=0x89ca5782  Data=0xxxxxxxxx

[26976000] ========== AHB Transaction #509 ==========
[26976000] AHB: WRITE  Addr=0x820e1712  Data=0x8ffb4e4e
[27010000]   APB Slave: Read (MISS)   Addr=0x89ca5782  Data=0x5782a87d [generated]

[27016000] ========== AHB Transaction #510 ==========
[27016000] AHB: READ   Addr=0x8495bd1e  Data=0xxxxxxxxx
[27030000]   PASS - Checker: AHB→APB addr OK, APB Read Data=0x5782a87d
[27070000]   APB Slave: Stored Write  Addr=0x820e1712  Data=0x8ffb4e4e

[27076000] ========== AHB Transaction #511 ==========
[27076000] AHB: WRITE  Addr=0x86137cbc  Data=0xfe8c4a4f
[27090000]   PASS - Checker: AHB→APB translation OK

[27116000] ========== AHB Transaction #512 ==========
[27116000] AHB: READ   Addr=0x802d7528  Data=0xxxxxxxxx
[27130000]   APB Slave: Read (MISS)   Addr=0x8495bd1e  Data=0xbd1e42e1 [generated]
[27150000]   PASS - Checker: AHB→APB addr OK, APB Read Data=0xbd1e42e1
[27170000]   APB Slave: Stored Write  Addr=0x86137cbc  Data=0xfe8c4a4f

[27176000] ========== AHB Transaction #513 ==========
[27176000] AHB: READ   Addr=0x82f540f8  Data=0xxxxxxxxx
[27190000]   PASS - Checker: AHB→APB translation OK

[27226000] ========== AHB Transaction #514 ==========
[27226000] AHB: READ   Addr=0x83d1ea40  Data=0xxxxxxxxx
[27230000]   APB Slave: Read (MISS)   Addr=0x802d7528  Data=0x75288ad7 [generated]
[27250000]   PASS - Checker: AHB→APB addr OK, APB Read Data=0x75288ad7

[27276000] ========== AHB Transaction #515 ==========
[27276000] AHB: WRITE  Addr=0x861aef4a  Data=0xabbb402
[27310000]   APB Slave: Read (MISS)   Addr=0x83d1ea40  Data=0xea4015bf [generated]

[27316000] ========== AHB Transaction #516 ==========
[27316000] AHB: WRITE  Addr=0x8308aa48  Data=0x110ba959
[27330000]   PASS - Checker: AHB→APB addr OK, APB Read Data=0xea4015bf
[27370000]   APB Slave: Stored Write  Addr=0x861aef4a  Data=0xabbb402

[27376000] ========== AHB Transaction #517 ==========
[27376000] AHB: WRITE  Addr=0x874b6260  Data=0x807456c7
[27390000]   PASS - Checker: AHB→APB translation OK
[27430000]   APB Slave: Stored Write  Addr=0x8308aa48  Data=0x110ba959

[27436000] ========== AHB Transaction #518 ==========
[27436000] AHB: READ   Addr=0x88a94b50  Data=0xxxxxxxxx
[27450000]   PASS - Checker: AHB→APB translation OK
[27490000]   APB Slave: Stored Write  Addr=0x874b6260  Data=0x807456c7

[27496000] ========== AHB Transaction #519 ==========
[27496000] AHB: READ   Addr=0x87b9c37c  Data=0xxxxxxxxx
[27510000]   PASS - Checker: AHB→APB translation OK

[27546000] ========== AHB Transaction #520 ==========
[27546000] AHB: READ   Addr=0x807b7cbc  Data=0xxxxxxxxx
[27550000]   APB Slave: Read (MISS)   Addr=0x88a94b50  Data=0x4b50b4af [generated]
[27570000]   PASS - Checker: AHB→APB addr OK, APB Read Data=0x4b50b4af

[27596000] ========== AHB Transaction #521 ==========
[27596000] AHB: WRITE  Addr=0x80c00194  Data=0x634d7ad2
[27630000]   APB Slave: Read (MISS)   Addr=0x807b7cbc  Data=0x7cbc8343 [generated]

[27636000] ========== AHB Transaction #522 ==========
[27636000] AHB: READ   Addr=0x898cb018  Data=0xxxxxxxxx
[27650000]   PASS - Checker: AHB→APB addr OK, APB Read Data=0x7cbc8343

[27676000] ========== AHB Transaction #523 ==========
[27676000] AHB: WRITE  Addr=0x8310c56c  Data=0x18eeaafe
[27710000]   APB Slave: Read (MISS)   Addr=0x898cb018  Data=0xb0184fe7 [generated]

[27716000] ========== AHB Transaction #524 ==========
